(1557396411.527189) can0 048#00000000
(1557396411.527267) can0 025#14010000
(1557396411.532181) can0 062#00000000
(1557396411.533401) can0 00D#70010000
(1557396411.537881) can0 020#01000000
(1557396411.547603) can0 048#00000000
(1557396411.547660) can0 025#FC000000
(1557396411.556364) can0 008#FFFFFFFF
(1557396411.556425) can0 00B#FFFFFFFF
(1557396411.567943) can0 009#FFFFFFFF
(1557396411.568004) can0 00A#FFFFFFFF
(1557396411.568142) can0 048#00000000
(1557396411.568202) can0 025#F0000000
(1557396411.573732) can0 064#FFEFCDAB
(1557396411.575114) can0 191#15080000
(1557396411.575175) can0 190#D5070000
(1557396411.575314) can0 011#D5070000
(1557396411.575374) can0 192#51000000
(1557396411.575437) can0 010#F8070000
(1557396411.575592) can0 191#F8070000
(1557396411.575678) can0 190#D5070000
(1557396411.575739) can0 011#D5070000
(1557396411.575884) can0 192#51000000
(1557396411.575944) can0 010#F5070000
(1557396411.576378) can0 008#FFFFFFFF
(1557396411.576438) can0 00B#FFFFFFFF
(1557396411.588468) can0 009#FFFFFFFF
(1557396411.588529) can0 00A#FFFFFFFF
(1557396411.588657) can0 048#00000000
(1557396411.588717) can0 025#F0000000
(1557396411.593187) can0 012#00000000
(1557396411.595312) can0 191#F8070000
(1557396411.595372) can0 190#D5070000
(1557396411.595511) can0 011#D5070000
(1557396411.595571) can0 192#51000000
(1557396411.595634) can0 010#F8070000
(1557396411.596398) can0 008#FFFFFFFF
(1557396411.596459) can0 00B#FFFFFFFF
(1557396411.608983) can0 009#FFFFFFFF
(1557396411.609045) can0 00A#FFFFFFFF
(1557396411.609185) can0 048#00000000
(1557396411.609246) can0 025#F0000000
(1557396411.613183) can0 012#00080000
(1557396411.613551) can0 191#F8070000
(1557396411.613612) can0 190#D4070000
(1557396411.613748) can0 011#D4070000
(1557396411.613808) can0 192#52000000
(1557396411.613866) can0 010#F8070000
(1557396411.616416) can0 008#FFFFFFFF
(1557396411.616542) can0 00B#FFFFFFFF
(1557396411.629504) can0 009#FFFFFFFF
(1557396411.629570) can0 00A#FFFFFFFF
(1557396411.629693) can0 048#00000000
(1557396411.629755) can0 025#F0000000
(1557396411.633186) can0 012#00080000
(1557396411.633552) can0 191#F8070000
(1557396411.633612) can0 190#D4070000
(1557396411.633748) can0 011#D4070000
(1557396411.633808) can0 192#51000000
(1557396411.633924) can0 010#F8070000
(1557396411.636427) can0 008#FFFFFFFF
(1557396411.636488) can0 00B#FFFFFFFF
(1557396411.650024) can0 009#FFFFFFFF
(1557396411.650084) can0 00A#FFFFFFFF
(1557396411.650223) can0 048#00000000
(1557396411.650288) can0 025#F0000000
(1557396411.653185) can0 012#FC070000
(1557396411.653552) can0 191#F8070000
(1557396411.653612) can0 190#D5070000
(1557396411.653747) can0 011#D4070000
(1557396411.653808) can0 192#52000000
(1557396411.653923) can0 010#F8070000
(1557396411.656430) can0 008#FFFFFFFF
(1557396411.656490) can0 00B#FFFFFFFF
(1557396411.670545) can0 009#FFFFFFFF
(1557396411.670606) can0 00A#FFFFFFFF
(1557396411.670743) can0 048#00000000
(1557396411.670803) can0 025#F0000000
(1557396411.673187) can0 012#01080000
(1557396411.673555) can0 191#F8070000
(1557396411.673615) can0 190#D5070000
(1557396411.673750) can0 011#D5070000
(1557396411.673810) can0 192#52000000
(1557396411.673868) can0 010#F8070000
(1557396411.676453) can0 008#FFFFFFFF
(1557396411.676514) can0 00B#FFFFFFFF
(1557396411.691068) can0 009#FFFFFFFF
(1557396411.691130) can0 00A#FFFFFFFF
(1557396411.691265) can0 048#00000000
(1557396411.691325) can0 025#F0000000
(1557396411.693186) can0 012#FE070000
(1557396411.693555) can0 191#F8070000
(1557396411.693615) can0 190#D5070000
(1557396411.693739) can0 011#D5070000
(1557396411.693799) can0 192#52000000
(1557396411.693915) can0 010#F8070000
(1557396411.696464) can0 008#FFFFFFFF
(1557396411.696525) can0 00B#FFFFFFFF
(1557396411.711585) can0 009#FFFFFFFF
(1557396411.711646) can0 00A#FFFFFFFF
(1557396411.711784) can0 048#00000000
(1557396411.711845) can0 025#F0000000
(1557396411.713188) can0 012#FF070000
(1557396411.713558) can0 191#F8070000
(1557396411.713618) can0 190#D5070000
(1557396411.713733) can0 011#D5070000
(1557396411.713793) can0 192#51000000
(1557396411.713909) can0 010#F8070000
(1557396411.716515) can0 008#FFFFFFFF
(1557396411.716607) can0 00B#FFFFFFFF
(1557396411.732109) can0 009#FFFFFFFF
(1557396411.732223) can0 00A#FFFFFFFF
(1557396411.732281) can0 048#00000000
(1557396411.732363) can0 025#F0000000
(1557396411.733199) can0 012#FD070000
(1557396411.733568) can0 191#F8070000
(1557396411.733633) can0 190#D5070000
(1557396411.733738) can0 011#D5070000
(1557396411.733831) can0 192#51000000
(1557396411.733889) can0 00D#70010000
(1557396411.733994) can0 010#F8070000
(1557396411.736499) can0 008#FFFFFFFF
(1557396411.736565) can0 00B#FFFFFFFF
(1557396411.752624) can0 009#FFFFFFFF
(1557396411.752705) can0 00A#FFFFFFFF
(1557396411.752853) can0 048#00000000
(1557396411.752912) can0 025#F0000000
(1557396411.753187) can0 012#00080000
(1557396411.753557) can0 191#F8070000
(1557396411.753622) can0 190#D5070000
(1557396411.753729) can0 011#D5070000
(1557396411.753822) can0 192#52000000
(1557396411.753892) can0 010#F8070000
(1557396411.756498) can0 008#FFFFFFFF
(1557396411.756564) can0 00B#FFFFFFFF
(1557396411.773149) can0 009#FFFFFFFF
(1557396411.773231) can0 00A#FFFFFFFF
(1557396411.773353) can0 012#00080000
(1557396411.773426) can0 048#00000000
(1557396411.773483) can0 025#F0000000
(1557396411.773593) can0 191#F8070000
(1557396411.773659) can0 190#D5070000
(1557396411.773765) can0 011#D5070000
(1557396411.773823) can0 192#52000000
(1557396411.773919) can0 010#F8070000
(1557396411.776516) can0 008#FFFFFFFF
(1557396411.776583) can0 00B#FFFFFFFF
(1557396411.793196) can0 012#FE070000
(1557396411.793562) can0 191#F8070000
(1557396411.793627) can0 190#D5070000
(1557396411.793732) can0 011#D5070000
(1557396411.793789) can0 192#51000000
(1557396411.793903) can0 010#F5070000
(1557396411.794005) can0 009#FFFFFFFF
(1557396411.794065) can0 00A#FFFFFFFF
(1557396411.794162) can0 048#00000000
(1557396411.794272) can0 025#F0000000
(1557396411.796542) can0 008#FFFFFFFF
(1557396411.796608) can0 00B#FFFFFFFF
(1557396411.813197) can0 012#FC070000
(1557396411.813565) can0 191#FA070000
(1557396411.813629) can0 190#D5070000
(1557396411.813733) can0 011#D5070000
(1557396411.813827) can0 192#50000000
(1557396411.813894) can0 010#F8070000
(1557396411.814202) can0 009#FFFFFFFF
(1557396411.814266) can0 00A#FFFFFFFF
(1557396411.814373) can0 048#00000000
(1557396411.814467) can0 025#F0000000
(1557396411.816551) can0 008#FFFFFFFF
(1557396411.816617) can0 00B#FFFFFFFF
(1557396411.833197) can0 012#00080000
(1557396411.833563) can0 191#F8070000
(1557396411.833636) can0 190#D5070000
(1557396411.833754) can0 011#D5070000
(1557396411.833836) can0 192#51000000
(1557396411.833895) can0 010#F8070000
(1557396411.834723) can0 009#FFFFFFFF
(1557396411.834790) can0 00A#FFFFFFFF
(1557396411.834899) can0 048#00000000
(1557396411.834956) can0 025#F0000000
(1557396411.836559) can0 008#FFFFFFFF
(1557396411.836626) can0 00B#FFFFFFFF
(1557396411.853198) can0 012#00080000
(1557396411.853564) can0 191#F8070000
(1557396411.853637) can0 190#D5070000
(1557396411.853763) can0 011#D5070000
(1557396411.853835) can0 192#51000000
(1557396411.853892) can0 010#F8070000
(1557396411.855246) can0 009#FFFFFFFF
(1557396411.855312) can0 00A#FFFFFFFF
(1557396411.855420) can0 048#00000000
(1557396411.855514) can0 025#F0000000
(1557396411.856583) can0 008#FFFFFFFF
(1557396411.856650) can0 00B#FFFFFFFF
(1557396411.873200) can0 012#FC070000
(1557396411.873565) can0 191#F8070000
(1557396411.873639) can0 190#D5070000
(1557396411.873786) can0 011#D5070000
(1557396411.873858) can0 192#51000000
(1557396411.873916) can0 010#F8070000
(1557396411.875765) can0 009#FFFFFFFF
(1557396411.875837) can0 00A#FFFFFFFF
(1557396411.875943) can0 048#00000000
(1557396411.876002) can0 025#F0000000
(1557396411.876595) can0 008#FFFFFFFF
(1557396411.876661) can0 00B#FFFFFFFF
(1557396411.893200) can0 012#01080000
(1557396411.893578) can0 191#F8070000
(1557396411.893662) can0 190#D5070000
(1557396411.893787) can0 011#D5070000
(1557396411.893854) can0 192#52000000
(1557396411.893927) can0 010#F8070000
(1557396411.896288) can0 009#FFFFFFFF
(1557396411.896369) can0 00A#FFFFFFFF
(1557396411.896493) can0 048#00000000
(1557396411.896559) can0 025#F0000000
(1557396411.896617) can0 008#FFFFFFFF
(1557396411.896724) can0 00B#FFFFFFFF
(1557396411.913205) can0 012#FC070000
(1557396411.913581) can0 191#F8070000
(1557396411.913654) can0 190#D5070000
(1557396411.913749) can0 011#D5070000
(1557396411.913844) can0 192#52000000
(1557396411.913902) can0 010#F8070000
(1557396411.916605) can0 008#FFFFFFFF
(1557396411.916671) can0 00B#FFFFFFFF
(1557396411.916801) can0 009#FFFFFFFF
(1557396411.916895) can0 00A#FFFFFFFF
(1557396411.916968) can0 048#00000000
(1557396411.917070) can0 025#F0000000
(1557396411.933213) can0 012#02080000
(1557396411.933592) can0 191#F8070000
(1557396411.933675) can0 190#D5070000
(1557396411.933801) can0 011#D5070000
(1557396411.933874) can0 192#51000000
(1557396411.933931) can0 00D#73010000
(1557396411.933996) can0 010#F8070000
(1557396411.936611) can0 008#FFFFFFFF
(1557396411.936677) can0 00B#FFFFFFFF
(1557396411.937328) can0 009#FFFFFFFF
(1557396411.937392) can0 00A#FFFFFFFF
(1557396411.937498) can0 048#00000000
(1557396411.937591) can0 025#F0000000
(1557396411.953203) can0 012#FF070000
(1557396411.953582) can0 191#F8070000
(1557396411.953664) can0 190#D5070000
(1557396411.953790) can0 011#D5070000
(1557396411.953856) can0 192#52000000
(1557396411.953928) can0 010#F8070000
(1557396411.956630) can0 008#FFFFFFFF
(1557396411.956711) can0 00B#FFFFFFFF
(1557396411.957850) can0 009#FFFFFFFF
(1557396411.957918) can0 00A#FFFFFFFF
(1557396411.958024) can0 048#00000000
(1557396411.958126) can0 025#F0000000
(1557396411.973217) can0 012#FE070000
(1557396411.973595) can0 191#F8070000
(1557396411.973661) can0 190#D5070000
(1557396411.973765) can0 011#D5070000
(1557396411.973823) can0 064#FFEFCDAB
(1557396411.973936) can0 192#52000000
(1557396411.974031) can0 010#F8070000
(1557396411.976637) can0 008#FFFFFFFF
(1557396411.976703) can0 00B#FFFFFFFF
(1557396411.978369) can0 009#FFFFFFFF
(1557396411.978435) can0 00A#FFFFFFFF
(1557396411.978543) can0 048#00000000
(1557396411.978601) can0 025#F0000000
(1557396411.993205) can0 012#02080000
(1557396411.993583) can0 191#F8070000
(1557396411.993648) can0 190#D5070000
(1557396411.993754) can0 011#D5070000
(1557396411.993811) can0 192#51000000
(1557396411.993924) can0 010#F8070000
(1557396411.996643) can0 008#FFFFFFFF
(1557396411.996709) can0 00B#FFFFFFFF
(1557396411.998891) can0 009#FFFFFFFF
(1557396411.998957) can0 00A#FFFFFFFF
(1557396411.999068) can0 048#00000000
(1557396411.999163) can0 025#F0000000
(1557396412.013207) can0 012#01080000
(1557396412.013585) can0 191#F8070000
(1557396412.013650) can0 190#D5070000
(1557396412.013755) can0 011#D5070000
(1557396412.013822) can0 192#52000000
(1557396412.013931) can0 010#F8070000
(1557396412.016662) can0 008#FFFFFFFF
(1557396412.016729) can0 00B#FFFFFFFF
(1557396412.019414) can0 009#FFFFFFFF
(1557396412.019480) can0 00A#FFFFFFFF
(1557396412.019592) can0 048#00000000
(1557396412.019687) can0 025#F0000000
(1557396412.033207) can0 012#FF070000
(1557396412.033585) can0 191#F8070000
(1557396412.033650) can0 190#D5070000
(1557396412.033756) can0 011#D5070000
(1557396412.033813) can0 192#51000000
(1557396412.033927) can0 010#F8070000
(1557396412.036674) can0 008#FFFFFFFF
(1557396412.036740) can0 00B#FFFFFFFF
(1557396412.039934) can0 009#FFFFFFFF
(1557396412.040010) can0 00A#FFFFFFFF
(1557396412.040108) can0 048#00000000
(1557396412.040174) can0 025#F0000000
(1557396412.053209) can0 012#FE070000
(1557396412.053589) can0 191#F8070000
(1557396412.053654) can0 190#D5070000
(1557396412.053761) can0 011#D5070000
(1557396412.053818) can0 192#52000000
(1557396412.053931) can0 010#F8070000
(1557396412.056691) can0 008#FFFFFFFF
(1557396412.056758) can0 00B#FFFFFFFF
(1557396412.060454) can0 009#FFFFFFFF
(1557396412.060533) can0 00A#FFFFFFFF
(1557396412.060657) can0 048#00000000
(1557396412.060723) can0 025#F0000000
(1557396412.073222) can0 012#FF070000
(1557396412.073606) can0 191#F8070000
(1557396412.073675) can0 190#D5070000
(1557396412.073778) can0 011#D5070000
(1557396412.073839) can0 192#51000000
(1557396412.073952) can0 010#F8070000
(1557396412.076723) can0 008#FFFFFFFF
(1557396412.076794) can0 00B#FFFFFFFF
(1557396412.080982) can0 009#FFFFFFFF
(1557396412.081076) can0 00A#FFFFFFFF
(1557396412.081138) can0 048#00000000
(1557396412.081266) can0 025#F0000000
(1557396412.093212) can0 012#00080000
(1557396412.093590) can0 191#F8070000
(1557396412.093656) can0 190#D5070000
(1557396412.093771) can0 011#D5070000
(1557396412.093828) can0 192#52000000
(1557396412.093927) can0 010#F8070000
(1557396412.096731) can0 008#FFFFFFFF
(1557396412.096797) can0 00B#FFFFFFFF
(1557396412.101503) can0 009#FFFFFFFF
(1557396412.101582) can0 00A#FFFFFFFF
(1557396412.101731) can0 048#00000000
(1557396412.101803) can0 025#F0000000
(1557396412.113210) can0 012#FF070000
(1557396412.113591) can0 191#F8070000
(1557396412.113656) can0 190#D5070000
(1557396412.113761) can0 011#D5070000
(1557396412.113819) can0 192#52000000
(1557396412.113934) can0 010#F8070000
(1557396412.116733) can0 008#FFFFFFFF
(1557396412.116799) can0 00B#FFFFFFFF
(1557396412.122026) can0 009#FFFFFFFF
(1557396412.122108) can0 00A#FFFFFFFF
(1557396412.122237) can0 048#00000000
(1557396412.122304) can0 025#F0000000
(1557396412.133227) can0 012#FB070000
(1557396412.133604) can0 191#F8070000
(1557396412.133677) can0 190#D5070000
(1557396412.133774) can0 011#D5070000
(1557396412.133832) can0 192#52000000
(1557396412.133939) can0 00D#74010000
(1557396412.134034) can0 010#F8070000
(1557396412.136742) can0 008#FFFFFFFF
(1557396412.136807) can0 00B#FFFFFFFF
(1557396412.142543) can0 009#FFFFFFFF
(1557396412.142615) can0 00A#FFFFFFFF
(1557396412.142719) can0 048#00000000
(1557396412.142833) can0 025#F0000000
(1557396412.153215) can0 012#FF070000
(1557396412.153593) can0 191#F8070000
(1557396412.153664) can0 190#D5070000
(1557396412.153759) can0 011#D5070000
(1557396412.153875) can0 192#51000000
(1557396412.153934) can0 010#F8070000
(1557396412.156773) can0 008#FFFFFFFF
(1557396412.156839) can0 00B#FFFFFFFF
(1557396412.163065) can0 009#FFFFFFFF
(1557396412.163145) can0 00A#FFFFFFFF
(1557396412.163270) can0 048#00000000
(1557396412.163340) can0 025#F0000000
(1557396412.173213) can0 012#FA070000
(1557396412.173589) can0 191#F8070000
(1557396412.173662) can0 190#D5070000
(1557396412.173759) can0 011#D5070000
(1557396412.173860) can0 192#51000000
(1557396412.173928) can0 010#F8070000
(1557396412.176777) can0 008#FFFFFFFF
(1557396412.176843) can0 00B#FFFFFFFF
(1557396412.183589) can0 009#FFFFFFFF
(1557396412.183671) can0 00A#FFFFFFFF
(1557396412.183795) can0 048#00000000
(1557396412.183865) can0 025#F0000000
(1557396412.193215) can0 012#FD070000
(1557396412.193591) can0 191#F8070000
(1557396412.193663) can0 190#D5070000
(1557396412.193761) can0 011#D5070000
(1557396412.193862) can0 192#51000000
(1557396412.193919) can0 010#F8070000
(1557396412.196785) can0 008#FFFFFFFF
(1557396412.196852) can0 00B#FFFFFFFF
(1557396412.198489) can0 048#00000000
(1557396412.198593) can0 025#14010000
(1557396412.213218) can0 012#FD070000
(1557396412.213596) can0 191#F8070000
(1557396412.213668) can0 190#D5070000
(1557396412.213762) can0 011#D5070000
(1557396412.213857) can0 192#52000000
(1557396412.213914) can0 010#F5070000
(1557396412.216788) can0 008#FFFFFFFF
(1557396412.216854) can0 00B#FFFFFFFF
(1557396412.233219) can0 012#FE070000
(1557396412.233595) can0 191#F8070000
(1557396412.233661) can0 190#D5070000
(1557396412.233766) can0 011#D5070000
(1557396412.233859) can0 192#51000000
(1557396412.233927) can0 010#F5070000
(1557396412.236806) can0 008#FFFFFFFF
(1557396412.236873) can0 00B#FFFFFFFF
(1557396412.253220) can0 012#FC070000
(1557396412.253594) can0 191#FA070000
(1557396412.253659) can0 190#D5070000
(1557396412.253763) can0 011#D5070000
(1557396412.253857) can0 192#51000000
(1557396412.253923) can0 010#F8070000
(1557396412.256828) can0 008#FFFFFFFF
(1557396412.256895) can0 00B#FFFFFFFF
(1557396412.273220) can0 012#FE070000
(1557396412.273600) can0 191#F8070000
(1557396412.273665) can0 190#D5070000
(1557396412.273770) can0 011#D5070000
(1557396412.273827) can0 192#51000000
(1557396412.273941) can0 010#F8070000
(1557396412.276831) can0 008#FFFFFFFF
(1557396412.276899) can0 00B#FFFFFFFF
(1557396412.293225) can0 012#FD070000
(1557396412.293601) can0 191#F8070000
(1557396412.293671) can0 190#D5070000
(1557396412.293769) can0 011#D5070000
(1557396412.293827) can0 192#52000000
(1557396412.293937) can0 010#F8070000
(1557396412.296841) can0 008#FFFFFFFF
(1557396412.296908) can0 00B#FFFFFFFF
(1557396412.313223) can0 012#FF070000
(1557396412.313603) can0 191#F8070000
(1557396412.313667) can0 190#D5070000
(1557396412.313772) can0 011#D5070000
(1557396412.313872) can0 192#51000000
(1557396412.313930) can0 010#F8070000
(1557396412.316860) can0 008#FFFFFFFF
(1557396412.316926) can0 00B#FFFFFFFF
(1557396412.333236) can0 012#00080000
(1557396412.333616) can0 191#F8070000
(1557396412.333680) can0 190#D5070000
(1557396412.333785) can0 011#D5070000
(1557396412.333842) can0 192#52000000
(1557396412.333951) can0 00D#77010000
(1557396412.334055) can0 010#F8070000
(1557396412.336859) can0 008#FFFFFFFF
(1557396412.336925) can0 00B#FFFFFFFF
(1557396412.353225) can0 012#00080000
(1557396412.353603) can0 191#F8070000
(1557396412.353673) can0 190#D5070000
(1557396412.353804) can0 011#D5070000
(1557396412.353902) can0 192#53000000
(1557396412.353981) can0 010#F8070000
(1557396412.356896) can0 008#FFFFFFFF
(1557396412.356977) can0 00B#FFFFFFFF
(1557396412.373237) can0 012#FF070000
(1557396412.373616) can0 191#F8070000
(1557396412.373681) can0 190#D5070000
(1557396412.373786) can0 011#D5070000
(1557396412.373844) can0 064#FFEFCDAB
(1557396412.373960) can0 192#52000000
(1557396412.374019) can0 010#F8070000
(1557396412.376902) can0 008#FFFFFFFF
(1557396412.376968) can0 00B#FFFFFFFF
(1557396412.393228) can0 012#FB070000
(1557396412.393605) can0 191#F8070000
(1557396412.393671) can0 190#D5070000
(1557396412.393776) can0 011#D5070000
(1557396412.393834) can0 192#52000000
(1557396412.393947) can0 010#F8070000
(1557396412.396915) can0 008#FFFFFFFF
(1557396412.396980) can0 00B#FFFFFFFF
(1557396412.413228) can0 012#FF070000
(1557396412.413606) can0 191#F8070000
(1557396412.413678) can0 190#D5070000
(1557396412.413773) can0 011#D5070000
(1557396412.413868) can0 192#51000000
(1557396412.413936) can0 010#F8070000
(1557396412.416934) can0 008#FFFFFFFF
(1557396412.417001) can0 00B#FFFFFFFF
(1557396412.433228) can0 012#00080000
(1557396412.433607) can0 191#F8070000
(1557396412.433689) can0 190#D5070000
(1557396412.433812) can0 011#D5070000
(1557396412.433878) can0 192#51000000
(1557396412.433936) can0 010#F8070000
(1557396412.436949) can0 008#FFFFFFFF
(1557396412.437018) can0 00B#FFFFFFFF
(1557396412.453229) can0 012#FF070000
(1557396412.453607) can0 191#F8070000
(1557396412.453690) can0 190#D5070000
(1557396412.453812) can0 011#D5070000
(1557396412.453879) can0 192#51000000
(1557396412.453953) can0 010#F8070000
(1557396412.456959) can0 008#FFFFFFFF
(1557396412.457027) can0 00B#FFFFFFFF
(1557396412.473229) can0 012#00080000
(1557396412.473609) can0 191#F8070000
(1557396412.473681) can0 190#D5070000
(1557396412.473777) can0 011#D5070000
(1557396412.473836) can0 192#52000000
(1557396412.473947) can0 010#F5070000
(1557396412.476975) can0 008#FFFFFFFF
(1557396412.477041) can0 00B#FFFFFFFF
(1557396412.493230) can0 012#FF070000
(1557396412.493609) can0 191#F8070000
(1557396412.493676) can0 190#D5070000
(1557396412.493780) can0 011#D5070000
(1557396412.493838) can0 192#52000000
(1557396412.493948) can0 010#F5070000
(1557396412.496988) can0 008#FFFFFFFF
(1557396412.497053) can0 00B#FFFFFFFF
(1557396412.513232) can0 012#FF070000
(1557396412.513611) can0 191#F8070000
(1557396412.513676) can0 190#D5070000
(1557396412.513781) can0 011#D5070000
(1557396412.513838) can0 192#52000000
(1557396412.513953) can0 010#F8070000
(1557396412.516991) can0 008#FFFFFFFF
(1557396412.517058) can0 00B#FFFFFFFF
(1557396412.533298) can0 012#01080000
(1557396412.533627) can0 191#F8070000
(1557396412.533694) can0 190#D5070000
(1557396412.533792) can0 011#D5070000
(1557396412.533886) can0 192#51000000
(1557396412.533943) can0 00D#74010000
(1557396412.534056) can0 010#F8070000
(1557396412.537015) can0 008#FFFFFFFF
(1557396412.537081) can0 00B#FFFFFFFF
(1557396412.538418) can0 020#01000000
(1557396412.553238) can0 012#00080000
(1557396412.553612) can0 191#F8070000
(1557396412.553676) can0 190#D5070000
(1557396412.553781) can0 011#D5070000
(1557396412.553876) can0 192#52000000
(1557396412.553933) can0 010#F8070000
(1557396412.557022) can0 008#FFFFFFFF
(1557396412.557088) can0 00B#FFFFFFFF
(1557396412.573262) can0 012#FF070000
(1557396412.573635) can0 191#F8070000
(1557396412.573699) can0 190#D5070000
(1557396412.573804) can0 011#D5070000
(1557396412.573899) can0 192#52000000
(1557396412.573966) can0 010#F8070000
(1557396412.577067) can0 008#FFFFFFFF
(1557396412.577138) can0 00B#FFFFFFFF
(1557396412.593239) can0 012#FF070000
(1557396412.597049) can0 008#FFFFFFFF
(1557396412.597132) can0 00B#FFFFFFFF
(1557396412.617071) can0 008#FFFFFFFF
(1557396412.617158) can0 00B#FFFFFFFF
(1557396412.628011) can0 191#F8070000
(1557396412.628094) can0 190#D5070000
(1557396412.628157) can0 011#D5070000
(1557396412.628272) can0 012#FF070000
(1557396412.628337) can0 192#51000000
(1557396412.628431) can0 010#F8070000
(1557396412.628615) can0 191#F5070000
(1557396412.628681) can0 190#D5070000
(1557396412.628777) can0 011#D5070000
(1557396412.628835) can0 192#52000000
(1557396412.628945) can0 010#F5070000
(1557396412.633239) can0 012#03080000
(1557396412.633604) can0 191#F8070000
(1557396412.633670) can0 190#D5070000
(1557396412.633779) can0 011#D5070000
(1557396412.633837) can0 192#52000000
(1557396412.633950) can0 010#F5070000
(1557396412.637081) can0 008#FFFFFFFF
(1557396412.637148) can0 00B#FFFFFFFF
(1557396412.653240) can0 012#FF070000
(1557396412.653615) can0 191#F8070000
(1557396412.653679) can0 190#D5070000
(1557396412.653787) can0 011#D5070000
(1557396412.653881) can0 192#52000000
(1557396412.653949) can0 010#F8070000
(1557396412.657088) can0 008#FFFFFFFF
(1557396412.657156) can0 00B#FFFFFFFF
(1557396412.673241) can0 012#FE070000
(1557396412.673616) can0 191#F8070000
(1557396412.673688) can0 190#D5070000
(1557396412.673786) can0 011#D5070000
(1557396412.673881) can0 192#51000000
(1557396412.673938) can0 010#F8070000
(1557396412.677101) can0 008#FFFFFFFF
(1557396412.677167) can0 00B#FFFFFFFF
(1557396412.693243) can0 012#FC070000
(1557396412.693617) can0 191#F8070000
(1557396412.693687) can0 190#D5070000
(1557396412.693785) can0 011#D5070000
(1557396412.693885) can0 192#51000000
(1557396412.693953) can0 010#F8070000
(1557396412.697108) can0 008#FFFFFFFF
(1557396412.697174) can0 00B#FFFFFFFF
(1557396412.713244) can0 012#01080000
(1557396412.713619) can0 191#F8070000
(1557396412.713691) can0 190#D5070000
(1557396412.713787) can0 011#D5070000
(1557396412.713888) can0 192#52000000
(1557396412.713946) can0 010#F8070000
(1557396412.717127) can0 008#FFFFFFFF
(1557396412.717193) can0 00B#FFFFFFFF
(1557396412.733258) can0 012#FF070000
(1557396412.733631) can0 191#F8070000
(1557396412.733714) can0 190#D5070000
(1557396412.733835) can0 011#D5070000
(1557396412.733902) can0 192#51000000
(1557396412.733973) can0 00D#74010000
(1557396412.734032) can0 010#F8070000
(1557396412.737146) can0 008#FFFFFFFF
(1557396412.737225) can0 00B#FFFFFFFF
(1557396412.753248) can0 012#FD070000
(1557396412.753622) can0 191#F8070000
(1557396412.753694) can0 190#D5070000
(1557396412.753790) can0 011#D5070000
(1557396412.753885) can0 192#52000000
(1557396412.753953) can0 010#F8070000
(1557396412.757147) can0 008#FFFFFFFF
(1557396412.757225) can0 00B#FFFFFFFF
(1557396412.773255) can0 012#00080000
(1557396412.773634) can0 191#F8070000
(1557396412.773699) can0 190#D5070000
(1557396412.773804) can0 011#D5070000
(1557396412.773898) can0 064#FFEFCDAB
(1557396412.773956) can0 192#52000000
(1557396412.774061) can0 010#F8070000
(1557396412.777174) can0 008#FFFFFFFF
(1557396412.777241) can0 00B#FFFFFFFF
(1557396412.793249) can0 012#01080000
(1557396412.793626) can0 191#F8070000
(1557396412.793691) can0 190#D5070000
(1557396412.793796) can0 011#D5070000
(1557396412.793863) can0 192#52000000
(1557396412.793970) can0 010#F8070000
(1557396412.797187) can0 008#FFFFFFFF
(1557396412.797254) can0 00B#FFFFFFFF
(1557396412.813250) can0 012#FD070000
(1557396412.813629) can0 191#F8070000
(1557396412.813703) can0 190#D5070000
(1557396412.813816) can0 011#D5070000
(1557396412.813882) can0 192#51000000
(1557396412.813978) can0 010#F8070000
(1557396412.817212) can0 008#FFFFFFFF
(1557396412.817280) can0 00B#FFFFFFFF
(1557396412.833251) can0 012#FF070000
(1557396412.833629) can0 191#F8070000
(1557396412.833693) can0 190#D5070000
(1557396412.833798) can0 011#D5070000
(1557396412.833855) can0 192#52000000
(1557396412.833972) can0 010#F8070000
(1557396412.837211) can0 008#FFFFFFFF
(1557396412.837278) can0 00B#FFFFFFFF
(1557396412.853251) can0 012#00080000
(1557396412.853629) can0 191#F8070000
(1557396412.853694) can0 190#D5070000
(1557396412.853799) can0 011#D5070000
(1557396412.853867) can0 192#50000000
(1557396412.853975) can0 010#F8070000
(1557396412.857216) can0 008#FFFFFFFF
(1557396412.857286) can0 00B#FFFFFFFF
(1557396412.873253) can0 012#FE070000
(1557396412.873630) can0 191#F8070000
(1557396412.873718) can0 190#D5070000
(1557396412.873793) can0 011#D5070000
(1557396412.873869) can0 192#51000000
(1557396412.874010) can0 010#F8070000
(1557396412.877254) can0 008#FFFFFFFF
(1557396412.877334) can0 00B#FFFFFFFF
(1557396412.893252) can0 012#00080000
(1557396412.893633) can0 191#FA070000
(1557396412.893697) can0 190#D5070000
(1557396412.893802) can0 011#D5070000
(1557396412.893871) can0 192#52000000
(1557396412.893972) can0 010#F8070000
(1557396412.897265) can0 008#FFFFFFFF
(1557396412.897331) can0 00B#FFFFFFFF
(1557396412.907403) can0 048#00000000
(1557396412.907485) can0 025#14010000
(1557396412.913253) can0 012#01080000
(1557396412.913633) can0 191#F8070000
(1557396412.913698) can0 190#D5070000
(1557396412.913804) can0 011#D5070000
(1557396412.913862) can0 192#51000000
(1557396412.913977) can0 010#F8070000
(1557396412.917272) can0 008#FFFFFFFF
(1557396412.917338) can0 00B#FFFFFFFF
(1557396412.927880) can0 048#00000000
(1557396412.927958) can0 025#FC000000
(1557396412.933266) can0 012#00080000
(1557396412.933647) can0 191#F8070000
(1557396412.933718) can0 190#D5070000
(1557396412.933815) can0 011#D5070000
(1557396412.933875) can0 192#52000000
(1557396412.933987) can0 00D#78010000
(1557396412.934046) can0 010#F5070000
(1557396412.937294) can0 008#FFFFFFFF
(1557396412.937360) can0 00B#FFFFFFFF
(1557396412.948222) can0 009#FFFFFFFF
(1557396412.948301) can0 00A#FFFFFFFF
(1557396412.948425) can0 048#00000000
(1557396412.948507) can0 025#F0000000
(1557396412.952044) can0 048#00000000
(1557396412.952125) can0 025#14010000
(1557396412.953255) can0 012#00080000
(1557396412.953634) can0 191#F8070000
(1557396412.953700) can0 190#D5070000
(1557396412.953807) can0 011#D5070000
(1557396412.953864) can0 192#52000000
(1557396412.953978) can0 010#F8070000
(1557396412.957150) can0 048#00000000
(1557396412.957216) can0 025#14010000
(1557396412.957321) can0 008#FFFFFFFF
(1557396412.957416) can0 00B#FFFFFFFF
(1557396412.962587) can0 048#00000000
(1557396412.962669) can0 025#14010000
(1557396412.966789) can0 048#00000000
(1557396412.966871) can0 025#14010000
(1557396412.973256) can0 012#FD070000
(1557396412.973634) can0 191#F8070000
(1557396412.973705) can0 190#D5070000
(1557396412.973801) can0 011#D5070000
(1557396412.973896) can0 192#52000000
(1557396412.973964) can0 010#F8070000
(1557396412.977315) can0 008#FFFFFFFF
(1557396412.977382) can0 00B#FFFFFFFF
(1557396412.993288) can0 012#FF070000
(1557396412.993637) can0 191#F8070000
(1557396412.993710) can0 190#D5070000
(1557396412.993807) can0 011#D5070000
(1557396412.993865) can0 192#51000000
(1557396412.993983) can0 010#F8070000
(1557396412.997338) can0 008#FFFFFFFF
(1557396412.997406) can0 00B#FFFFFFFF
(1557396413.013259) can0 012#FF070000
(1557396413.013636) can0 191#F8070000
(1557396413.013721) can0 190#D5070000
(1557396413.013786) can0 011#D5070000
(1557396413.013900) can0 192#52000000
(1557396413.013958) can0 010#F8070000
(1557396413.017346) can0 008#FFFFFFFF
(1557396413.017426) can0 00B#FFFFFFFF
(1557396413.033261) can0 012#FF070000
(1557396413.033637) can0 191#F8070000
(1557396413.033708) can0 190#D5070000
(1557396413.033831) can0 011#D5070000
(1557396413.033903) can0 192#51000000
(1557396413.033960) can0 010#F8070000
(1557396413.037364) can0 008#FFFFFFFF
(1557396413.037449) can0 00B#FFFFFFFF
(1557396413.053261) can0 012#FF070000
(1557396413.053642) can0 191#F8070000
(1557396413.053706) can0 190#D5070000
(1557396413.053811) can0 011#D5070000
(1557396413.053870) can0 192#52000000
(1557396413.053983) can0 010#F8070000
(1557396413.057373) can0 008#FFFFFFFF
(1557396413.057440) can0 00B#FFFFFFFF
(1557396413.073277) can0 012#FD070000
(1557396413.073653) can0 191#F8070000
(1557396413.073725) can0 190#D5070000
(1557396413.073848) can0 011#D5070000
(1557396413.073936) can0 192#52000000
(1557396413.074004) can0 010#F8070000
(1557396413.077389) can0 008#FFFFFFFF
(1557396413.077470) can0 00B#FFFFFFFF
(1557396413.093274) can0 012#FE070000
(1557396413.093643) can0 191#F8070000
(1557396413.093709) can0 190#D5070000
(1557396413.093814) can0 011#D5070000
(1557396413.093872) can0 192#51000000
(1557396413.093980) can0 010#F8070000
(1557396413.097407) can0 008#FFFFFFFF
(1557396413.097485) can0 00B#FFFFFFFF
(1557396413.113266) can0 012#FF070000
(1557396413.113645) can0 191#F8070000
(1557396413.113709) can0 190#D5070000
(1557396413.113814) can0 011#D5070000
(1557396413.113873) can0 192#51000000
(1557396413.113985) can0 010#F8070000
(1557396413.117414) can0 008#FFFFFFFF
(1557396413.117480) can0 00B#FFFFFFFF
(1557396413.133278) can0 012#FC070000
(1557396413.133655) can0 191#F8070000
(1557396413.133726) can0 190#D5070000
(1557396413.133841) can0 011#D5070000
(1557396413.133908) can0 192#51000000
(1557396413.134015) can0 00D#78010000
(1557396413.134072) can0 010#F8070000
(1557396413.137441) can0 008#FFFFFFFF
(1557396413.137507) can0 00B#FFFFFFFF
(1557396413.153268) can0 012#FF070000
(1557396413.153646) can0 191#F8070000
(1557396413.153711) can0 190#D5070000
(1557396413.153816) can0 011#D5070000
(1557396413.153874) can0 192#52000000
(1557396413.153989) can0 010#F8070000
(1557396413.157445) can0 008#FFFFFFFF
(1557396413.157513) can0 00B#FFFFFFFF
(1557396413.173281) can0 012#FE070000
(1557396413.173658) can0 191#F8070000
(1557396413.173729) can0 190#D7070000
(1557396413.173851) can0 011#D5070000
(1557396413.173920) can0 064#FFEFCDAB
(1557396413.173977) can0 192#52000000
(1557396413.174083) can0 010#F8070000
(1557396413.177452) can0 008#FFFFFFFF
(1557396413.177520) can0 00B#FFFFFFFF
(1557396413.193270) can0 012#FB070000
(1557396413.193647) can0 191#F8070000
(1557396413.193712) can0 190#D7070000
(1557396413.193811) can0 011#D5070000
(1557396413.193913) can0 192#52000000
(1557396413.193980) can0 010#F8070000
(1557396413.197462) can0 008#FFFFFFFF
(1557396413.197529) can0 00B#FFFFFFFF
(1557396413.213272) can0 012#04080000
(1557396413.213648) can0 191#F8070000
(1557396413.213721) can0 190#D5070000
(1557396413.213816) can0 011#D5070000
(1557396413.213911) can0 192#52000000
(1557396413.213980) can0 010#F8070000
(1557396413.217471) can0 008#FFFFFFFF
(1557396413.217537) can0 00B#FFFFFFFF
(1557396413.233272) can0 012#FE070000
(1557396413.233650) can0 191#F8070000
(1557396413.233722) can0 190#D5070000
(1557396413.233816) can0 011#D5070000
(1557396413.233911) can0 192#52000000
(1557396413.233969) can0 010#F8070000
(1557396413.237490) can0 008#FFFFFFFF
(1557396413.237567) can0 00B#FFFFFFFF
(1557396413.253271) can0 012#FF070000
(1557396413.253651) can0 191#F8070000
(1557396413.253723) can0 190#D5070000
(1557396413.253818) can0 011#D5070000
(1557396413.253914) can0 192#52000000
(1557396413.253981) can0 010#F8070000
(1557396413.257516) can0 008#FFFFFFFF
(1557396413.257582) can0 00B#FFFFFFFF
(1557396413.273276) can0 012#00080000
(1557396413.273651) can0 191#F8070000
(1557396413.273733) can0 190#D5070000
(1557396413.273846) can0 011#D5070000
(1557396413.273911) can0 192#52000000
(1557396413.273983) can0 010#F8070000
(1557396413.277523) can0 008#FFFFFFFF
(1557396413.277604) can0 00B#FFFFFFFF
(1557396413.293273) can0 012#FE070000
(1557396413.293653) can0 191#F8070000
(1557396413.293724) can0 190#D5070000
(1557396413.293819) can0 011#D5070000
(1557396413.293914) can0 192#52000000
(1557396413.293982) can0 010#F8070000
(1557396413.297531) can0 008#FFFFFFFF
(1557396413.297611) can0 00B#FFFFFFFF
(1557396413.313276) can0 012#FD070000
(1557396413.313655) can0 191#F8070000
(1557396413.313742) can0 190#D5070000
(1557396413.313821) can0 011#D5070000
(1557396413.313920) can0 192#52000000
(1557396413.313988) can0 010#F5070000
(1557396413.317544) can0 008#FFFFFFFF
(1557396413.317625) can0 00B#FFFFFFFF
(1557396413.333288) can0 012#FE070000
(1557396413.333667) can0 191#F8070000
(1557396413.333731) can0 190#D5070000
(1557396413.333835) can0 011#D5070000
(1557396413.333893) can0 192#52000000
(1557396413.334008) can0 00D#77010000
(1557396413.334066) can0 010#F5070000
(1557396413.337561) can0 008#FFFFFFFF
(1557396413.337635) can0 00B#FFFFFFFF
(1557396413.353278) can0 012#FE070000
(1557396413.353655) can0 191#F8070000
(1557396413.353721) can0 190#D5070000
(1557396413.353827) can0 011#D5070000
(1557396413.353884) can0 192#51000000
(1557396413.353998) can0 010#F5070000
(1557396413.357567) can0 008#FFFFFFFF
(1557396413.357644) can0 00B#FFFFFFFF
(1557396413.369983) can0 009#FFFFFFFF
(1557396413.370069) can0 00A#FFFFFFFF
(1557396413.370185) can0 048#FDFFFFFF
(1557396413.370272) can0 025#6AFFFFFF
(1557396413.373277) can0 012#FE070000
(1557396413.373657) can0 191#F8070000
(1557396413.373722) can0 190#D5070000
(1557396413.373826) can0 011#D5070000
(1557396413.373884) can0 192#50000000
(1557396413.373997) can0 010#F8070000
(1557396413.377573) can0 008#FFFFFFFF
(1557396413.377640) can0 00B#FFFFFFFF
(1557396413.393279) can0 012#FE070000
(1557396413.393657) can0 191#F8070000
(1557396413.393722) can0 190#D5070000
(1557396413.393826) can0 011#D5070000
(1557396413.393919) can0 192#52000000
(1557396413.393987) can0 010#F8070000
(1557396413.397602) can0 008#FFFFFFFF
(1557396413.397679) can0 00B#FFFFFFFF
(1557396413.413279) can0 012#FF070000
(1557396413.413658) can0 191#F8070000
(1557396413.413722) can0 190#D5070000
(1557396413.413826) can0 011#D5070000
(1557396413.413920) can0 192#52000000
(1557396413.413988) can0 010#F8070000
(1557396413.417612) can0 008#FFFFFFFF
(1557396413.417678) can0 00B#FFFFFFFF
(1557396413.433284) can0 012#FE070000
(1557396413.433659) can0 191#F8070000
(1557396413.433747) can0 190#D5070000
(1557396413.433823) can0 011#D5070000
(1557396413.433907) can0 192#52000000
(1557396413.434004) can0 010#F8070000
(1557396413.437619) can0 008#FFFFFFFF
(1557396413.437690) can0 00B#FFFFFFFF
(1557396413.453281) can0 012#FF070000
(1557396413.453660) can0 191#F8070000
(1557396413.453723) can0 190#D5070000
(1557396413.453827) can0 011#D5070000
(1557396413.453923) can0 192#52000000
(1557396413.453990) can0 010#F5070000
(1557396413.457645) can0 008#FFFFFFFF
(1557396413.457723) can0 00B#FFFFFFFF
(1557396413.473282) can0 012#FE070000
(1557396413.473660) can0 191#F8070000
(1557396413.473733) can0 190#D5070000
(1557396413.473828) can0 011#D5070000
(1557396413.473923) can0 192#51000000
(1557396413.473981) can0 010#F8070000
(1557396413.477653) can0 008#FFFFFFFF
(1557396413.477720) can0 00B#FFFFFFFF
(1557396413.493297) can0 012#FE070000
(1557396413.493666) can0 191#F8070000
(1557396413.493743) can0 190#D5070000
(1557396413.493855) can0 011#D5070000
(1557396413.493913) can0 192#52000000
(1557396413.494013) can0 010#F8070000
(1557396413.497656) can0 008#FFFFFFFF
(1557396413.497722) can0 00B#FFFFFFFF
(1557396413.513288) can0 012#FD070000
(1557396413.513666) can0 191#F8070000
(1557396413.513737) can0 190#D5070000
(1557396413.513831) can0 011#D5070000
(1557396413.513927) can0 192#51000000
(1557396413.513985) can0 010#F5070000
(1557396413.517672) can0 008#FFFFFFFF
(1557396413.517738) can0 00B#FFFFFFFF
(1557396413.533299) can0 012#FD070000
(1557396413.533676) can0 191#F8070000
(1557396413.533748) can0 190#D5070000
(1557396413.533844) can0 011#D5070000
(1557396413.533938) can0 192#52000000
(1557396413.533997) can0 00D#76010000
(1557396413.534098) can0 010#F8070000
(1557396413.537680) can0 008#FFFFFFFF
(1557396413.537753) can0 00B#FFFFFFFF
(1557396413.538769) can0 020#01000000
(1557396413.553287) can0 012#FE070000
(1557396413.553668) can0 191#F8070000
(1557396413.553739) can0 190#D5070000
(1557396413.553833) can0 011#D5070000
(1557396413.553929) can0 192#51000000
(1557396413.553986) can0 010#F8070000
(1557396413.557686) can0 008#FFFFFFFF
(1557396413.557754) can0 00B#FFFFFFFF
(1557396413.573314) can0 012#04080000
(1557396413.573692) can0 191#F8070000
(1557396413.573781) can0 190#D5070000
(1557396413.573860) can0 011#D5070000
(1557396413.573959) can0 064#FFEFCDAB
(1557396413.574017) can0 192#51000000
(1557396413.574115) can0 010#F8070000
(1557396413.577703) can0 008#FFFFFFFF
(1557396413.577771) can0 00B#FFFFFFFF
(1557396413.593289) can0 012#00080000
(1557396413.597705) can0 008#FFFFFFFF
(1557396413.597789) can0 00B#FFFFFFFF
(1557396413.604319) can0 191#F8070000
(1557396413.604403) can0 190#D5070000
(1557396413.604467) can0 011#D5070000
(1557396413.604604) can0 192#52000000
(1557396413.604675) can0 010#F8070000
(1557396413.613300) can0 012#01080000
(1557396413.613670) can0 191#F8070000
(1557396413.613734) can0 190#D5070000
(1557396413.613838) can0 011#D5070000
(1557396413.613896) can0 192#52000000
(1557396413.614012) can0 010#F8070000
(1557396413.617728) can0 008#FFFFFFFF
(1557396413.617805) can0 00B#FFFFFFFF
(1557396413.633291) can0 012#FF070000
(1557396413.633669) can0 191#F8070000
(1557396413.633733) can0 190#D5070000
(1557396413.633837) can0 011#D5070000
(1557396413.633932) can0 192#51000000
(1557396413.633989) can0 010#F8070000
(1557396413.637722) can0 008#FFFFFFFF
(1557396413.637797) can0 00B#FFFFFFFF
(1557396413.653291) can0 012#00080000
(1557396413.653671) can0 191#F8070000
(1557396413.653735) can0 190#D5070000
(1557396413.653839) can0 011#D5070000
(1557396413.653897) can0 192#52000000
(1557396413.654021) can0 010#F8070000
(1557396413.657744) can0 008#FFFFFFFF
(1557396413.657823) can0 00B#FFFFFFFF
(1557396413.673293) can0 012#FE070000
(1557396413.673669) can0 191#F8070000
(1557396413.673733) can0 190#D5070000
(1557396413.673838) can0 011#D5070000
(1557396413.673932) can0 192#51000000
(1557396413.673989) can0 010#F8070000
(1557396413.677748) can0 008#FFFFFFFF
(1557396413.677814) can0 00B#FFFFFFFF
(1557396413.693296) can0 012#FB070000
(1557396413.693670) can0 191#F8070000
(1557396413.693734) can0 190#D5070000
(1557396413.693839) can0 011#D5070000
(1557396413.693933) can0 192#52000000
(1557396413.693991) can0 010#F8070000
(1557396413.697759) can0 008#FFFFFFFF
(1557396413.697824) can0 00B#FFFFFFFF
(1557396413.713296) can0 012#02080000
(1557396413.713676) can0 191#F8070000
(1557396413.713741) can0 190#D5070000
(1557396413.713846) can0 011#D5070000
(1557396413.713913) can0 192#52000000
(1557396413.714016) can0 010#F8070000
(1557396413.717770) can0 008#FFFFFFFF
(1557396413.717849) can0 00B#FFFFFFFF
(1557396413.733308) can0 012#FE070000
(1557396413.733687) can0 191#F8070000
(1557396413.733753) can0 190#D5070000
(1557396413.733858) can0 011#D5070000
(1557396413.733917) can0 192#52000000
(1557396413.734032) can0 00D#76010000
(1557396413.734091) can0 010#F8070000
(1557396413.737791) can0 008#FFFFFFFF
(1557396413.737864) can0 00B#FFFFFFFF
(1557396413.753307) can0 012#FE070000
(1557396413.753676) can0 191#F8070000
(1557396413.753748) can0 190#D5070000
(1557396413.753844) can0 011#D5070000
(1557396413.753938) can0 192#52000000
(1557396413.754001) can0 010#F8070000
(1557396413.757794) can0 008#FFFFFFFF
(1557396413.757860) can0 00B#FFFFFFFF
(1557396413.773337) can0 012#FE070000
(1557396413.773679) can0 191#F8070000
(1557396413.773754) can0 190#D5070000
(1557396413.773850) can0 011#D5070000
(1557396413.773908) can0 192#52000000
(1557396413.774015) can0 010#F8070000
(1557396413.777824) can0 008#FFFFFFFF
(1557396413.777904) can0 00B#FFFFFFFF
(1557396413.793300) can0 012#FD070000
(1557396413.793678) can0 191#F8070000
(1557396413.793750) can0 190#D5070000
(1557396413.793845) can0 011#D5070000
(1557396413.793941) can0 192#51000000
(1557396413.794003) can0 010#F8070000
(1557396413.797357) can0 009#FFFFFFFF
(1557396413.797424) can0 00A#FFFFFFFF
(1557396413.797819) can0 008#FFFFFFFF
(1557396413.797885) can0 00B#FFFFFFFF
(1557396413.798518) can0 048#01000000
(1557396413.798584) can0 025#A3010000
(1557396413.813306) can0 012#FE070000
(1557396413.813681) can0 191#F8070000
(1557396413.813752) can0 190#D5070000
(1557396413.813847) can0 011#D5070000
(1557396413.813942) can0 192#51000000
(1557396413.814012) can0 010#F8070000
(1557396413.817828) can0 008#FFFFFFFF
(1557396413.817895) can0 00B#FFFFFFFF
(1557396413.833307) can0 012#FC070000
(1557396413.833679) can0 191#F8070000
(1557396413.833751) can0 190#D5070000
(1557396413.833845) can0 011#D5070000
(1557396413.833939) can0 192#52000000
(1557396413.834002) can0 010#F8070000
(1557396413.837844) can0 008#FFFFFFFF
(1557396413.837922) can0 00B#FFFFFFFF
(1557396413.853301) can0 012#FF070000
(1557396413.853681) can0 191#F8070000
(1557396413.853746) can0 190#D5070000
(1557396413.853851) can0 011#D5070000
(1557396413.853919) can0 192#51000000
(1557396413.854027) can0 010#F8070000
(1557396413.857853) can0 008#FFFFFFFF
(1557396413.857930) can0 00B#FFFFFFFF
(1557396413.873303) can0 012#FE070000
(1557396413.873682) can0 191#F8070000
(1557396413.873746) can0 190#D5070000
(1557396413.873851) can0 011#D5070000
(1557396413.873920) can0 192#51000000
(1557396413.874021) can0 010#F8070000
(1557396413.877877) can0 008#FFFFFFFF
(1557396413.877956) can0 00B#FFFFFFFF
(1557396413.893304) can0 012#00080000
(1557396413.893684) can0 191#F8070000
(1557396413.893750) can0 190#D5070000
(1557396413.893853) can0 011#D5070000
(1557396413.893911) can0 192#52000000
(1557396413.894024) can0 010#F8070000
(1557396413.897884) can0 008#FFFFFFFF
(1557396413.897950) can0 00B#FFFFFFFF
(1557396413.913318) can0 012#FF070000
(1557396413.913696) can0 191#F8070000
(1557396413.913766) can0 190#D5070000
(1557396413.913890) can0 011#D5070000
(1557396413.913978) can0 192#52000000
(1557396413.914060) can0 010#F8070000
(1557396413.917903) can0 008#FFFFFFFF
(1557396413.917984) can0 00B#FFFFFFFF
(1557396413.933318) can0 012#FF070000
(1557396413.933697) can0 191#F8070000
(1557396413.933763) can0 190#D5070000
(1557396413.933867) can0 011#D5070000
(1557396413.933925) can0 192#51000000
(1557396413.934038) can0 00D#76010000
(1557396413.934106) can0 010#F8070000
(1557396413.937907) can0 008#FFFFFFFF
(1557396413.937978) can0 00B#FFFFFFFF
