(1557396617.584213) can0 012#FE070000
(1557396617.584526) can0 191#F8070000
(1557396617.584588) can0 190#D5070000
(1557396617.584693) can0 011#D5070000
(1557396617.584751) can0 064#FFEFCDAB
(1557396617.584864) can0 192#62000000
(1557396617.584925) can0 010#F5070000
(1557396617.588612) can0 048#00000000
(1557396617.588669) can0 025#14010000
(1557396617.589704) can0 008#FFFFFFFF
(1557396617.589761) can0 00B#FFFFFFFF
(1557396617.604148) can0 012#FD070000
(1557396617.609099) can0 048#00000000
(1557396617.609170) can0 025#FC000000
(1557396617.609721) can0 008#FFFFFFFF
(1557396617.609787) can0 00B#FFFFFFFF
(1557396617.615282) can0 191#F8070000
(1557396617.615384) can0 190#D5070000
(1557396617.615467) can0 192#61000000
(1557396617.615517) can0 20000004#0001000000000000
(1557396617.615624) can0 010#F8070000
(1557396617.624237) can0 012#FD070000
(1557396617.624525) can0 191#F8070000
(1557396617.624598) can0 190#D5070000
(1557396617.624680) can0 011#D5070000
(1557396617.624747) can0 192#62000000
(1557396617.624818) can0 010#F5070000
(1557396617.626656) can0 048#00000000
(1557396617.626750) can0 025#14010000
(1557396617.629764) can0 008#FFFFFFFF
(1557396617.629859) can0 00B#FFFFFFFF
(1557396617.631803) can0 048#00000000
(1557396617.631898) can0 025#14010000
(1557396617.636922) can0 048#00000000
(1557396617.637047) can0 025#14010000
(1557396617.642564) can0 048#00000000
(1557396617.642665) can0 025#14010000
(1557396617.644176) can0 012#FB070000
(1557396617.644525) can0 191#F8070000
(1557396617.644596) can0 190#D5070000
(1557396617.644671) can0 011#D5070000
(1557396617.644785) can0 192#62000000
(1557396617.644845) can0 010#F8070000
(1557396617.649875) can0 008#FFFFFFFF
(1557396617.649961) can0 00B#FFFFFFFF
(1557396617.664285) can0 012#FC070000
(1557396617.664606) can0 191#F8070000
(1557396617.664673) can0 190#D5070000
(1557396617.664763) can0 011#D5070000
(1557396617.664824) can0 192#62000000
(1557396617.664875) can0 20000004#0001000000000000
(1557396617.664972) can0 010#F5070000
(1557396617.669921) can0 008#FFFFFFFF
(1557396617.670041) can0 00B#FFFFFFFF
(1557396617.684182) can0 012#F9070000
(1557396617.684505) can0 191#F8070000
(1557396617.684564) can0 190#D7070000
(1557396617.684640) can0 011#D5070000
(1557396617.684757) can0 192#63000000
(1557396617.684813) can0 010#F8070000
(1557396617.689767) can0 008#FFFFFFFF
(1557396617.689825) can0 00B#FFFFFFFF
(1557396617.704123) can0 012#FF070000
(1557396617.704501) can0 191#F8070000
(1557396617.704564) can0 190#D7070000
(1557396617.704694) can0 011#D7070000
(1557396617.704784) can0 192#62000000
(1557396617.704847) can0 010#F8070000
(1557396617.709765) can0 008#FFFFFFFF
(1557396617.709821) can0 00B#FFFFFFFF
(1557396617.724124) can0 012#FE070000
(1557396617.724503) can0 191#F8070000
(1557396617.724559) can0 190#D7070000
(1557396617.724669) can0 011#D5070000
(1557396617.724725) can0 192#62000000
(1557396617.724849) can0 010#F8070000
(1557396617.729787) can0 008#FFFFFFFF
(1557396617.729843) can0 00B#FFFFFFFF
(1557396617.744139) can0 012#FF070000
(1557396617.744517) can0 191#F8070000
(1557396617.744578) can0 190#D5070000
(1557396617.744709) can0 011#D5070000
(1557396617.744770) can0 192#64000000
(1557396617.744831) can0 00D#74010000
(1557396617.744953) can0 010#F8070000
(1557396617.749810) can0 008#FFFFFFFF
(1557396617.749871) can0 00B#FFFFFFFF
(1557396617.764126) can0 012#FB070000
(1557396617.764505) can0 191#F8070000
(1557396617.764566) can0 190#D5070000
(1557396617.764712) can0 011#D5070000
(1557396617.764775) can0 192#62000000
(1557396617.764834) can0 010#F5070000
(1557396617.769822) can0 008#FFFFFFFF
(1557396617.769896) can0 00B#FFFFFFFF
(1557396617.784128) can0 012#FB070000
(1557396617.784506) can0 191#F8070000
(1557396617.784567) can0 190#D5070000
(1557396617.784707) can0 011#D5070000
(1557396617.784768) can0 192#62000000
(1557396617.784828) can0 010#F5070000
(1557396617.789840) can0 008#FFFFFFFF
(1557396617.789902) can0 00B#FFFFFFFF
(1557396617.804129) can0 012#FC070000
(1557396617.804507) can0 191#F8070000
(1557396617.804568) can0 190#D5070000
(1557396617.804706) can0 011#D5070000
(1557396617.804767) can0 192#62000000
(1557396617.804828) can0 010#F8070000
(1557396617.809851) can0 008#FFFFFFFF
(1557396617.809963) can0 00B#FFFFFFFF
(1557396617.824134) can0 012#FE070000
(1557396617.824511) can0 191#F8070000
(1557396617.824568) can0 190#D5070000
(1557396617.824696) can0 011#D5070000
(1557396617.824753) can0 192#63000000
(1557396617.824842) can0 010#F8070000
(1557396617.829882) can0 008#FFFFFFFF
(1557396617.829939) can0 00B#FFFFFFFF
(1557396617.844130) can0 012#FB070000
(1557396617.844510) can0 191#F8070000
(1557396617.844566) can0 190#D5070000
(1557396617.844692) can0 011#D5070000
(1557396617.844748) can0 192#62000000
(1557396617.844857) can0 010#F5070000
(1557396617.849885) can0 008#FFFFFFFF
(1557396617.849941) can0 00B#FFFFFFFF
(1557396617.864132) can0 012#FC070000
(1557396617.864510) can0 191#F8070000
(1557396617.864566) can0 190#D7070000
(1557396617.864675) can0 011#D5070000
(1557396617.864764) can0 192#62000000
(1557396617.864819) can0 010#F8070000
(1557396617.869891) can0 008#FFFFFFFF
(1557396617.869948) can0 00B#FFFFFFFF
(1557396617.884134) can0 012#FE070000
(1557396617.884512) can0 191#F8070000
(1557396617.884573) can0 190#D7070000
(1557396617.884693) can0 011#D7070000
(1557396617.884755) can0 192#62000000
(1557396617.884865) can0 010#F8070000
(1557396617.889900) can0 008#FFFFFFFF
(1557396617.889961) can0 00B#FFFFFFFF
(1557396617.904135) can0 012#F9070000
(1557396617.904513) can0 191#F8070000
(1557396617.904574) can0 190#D5070000
(1557396617.904695) can0 011#D5070000
(1557396617.904757) can0 192#62000000
(1557396617.904865) can0 010#F8070000
(1557396617.909912) can0 008#FFFFFFFF
(1557396617.909973) can0 00B#FFFFFFFF
(1557396617.924135) can0 012#FC070000
(1557396617.924514) can0 191#F8070000
(1557396617.924576) can0 190#D7070000
(1557396617.924695) can0 011#D5070000
(1557396617.924757) can0 192#62000000
(1557396617.924865) can0 010#F8070000
(1557396617.929916) can0 008#FFFFFFFF
(1557396617.929979) can0 00B#FFFFFFFF
(1557396617.938476) can0 048#00000000
(1557396617.938537) can0 025#14010000
(1557396617.944151) can0 012#FD070000
(1557396617.944528) can0 191#F8070000
(1557396617.944589) can0 190#D5070000
(1557396617.944708) can0 011#D5070000
(1557396617.944769) can0 192#62000000
(1557396617.944908) can0 00D#75010000
(1557396617.944969) can0 010#F8070000
(1557396617.949926) can0 008#FFFFFFFF
(1557396617.950051) can0 00B#FFFFFFFF
(1557396617.958953) can0 048#00000000
(1557396617.959014) can0 025#FC000000
(1557396617.964138) can0 012#FD070000
(1557396617.964517) can0 191#F8070000
(1557396617.964577) can0 190#D5070000
(1557396617.964699) can0 011#D5070000
(1557396617.964762) can0 192#62000000
(1557396617.964871) can0 010#F8070000
(1557396617.969952) can0 008#FFFFFFFF
(1557396617.970014) can0 00B#FFFFFFFF
(1557396617.977135) can0 048#00000000
(1557396617.977196) can0 025#14010000
(1557396617.982103) can0 048#00000000
(1557396617.982163) can0 025#14010000
(1557396617.984151) can0 012#FE070000
(1557396617.984530) can0 191#F8070000
(1557396617.984590) can0 190#D5070000
(1557396617.984711) can0 011#D5070000
(1557396617.984772) can0 064#FFEFCDAB
(1557396617.984868) can0 192#63000000
(1557396617.984928) can0 010#F8070000
(1557396617.986979) can0 048#00000000
(1557396617.987068) can0 025#14010000
(1557396617.989976) can0 008#FFFFFFFF
(1557396617.990033) can0 00B#FFFFFFFF
(1557396618.004141) can0 012#FD070000
(1557396618.004518) can0 191#F8070000
(1557396618.004579) can0 190#D5070000
(1557396618.004700) can0 011#D5070000
(1557396618.004763) can0 192#62000000
(1557396618.004882) can0 010#F8070000
(1557396618.009993) can0 008#FFFFFFFF
(1557396618.010054) can0 00B#FFFFFFFF
(1557396618.024142) can0 012#FC070000
(1557396618.024518) can0 191#F8070000
(1557396618.024579) can0 190#D5070000
(1557396618.024709) can0 011#D5070000
(1557396618.024771) can0 192#62000000
(1557396618.024880) can0 010#F8070000
(1557396618.030002) can0 008#FFFFFFFF
(1557396618.030063) can0 00B#FFFFFFFF
(1557396618.044141) can0 012#FB070000
(1557396618.044519) can0 191#F8070000
(1557396618.044580) can0 190#D5070000
(1557396618.044708) can0 011#D5070000
(1557396618.044770) can0 192#62000000
(1557396618.044881) can0 010#F8070000
(1557396618.050012) can0 008#FFFFFFFF
(1557396618.050073) can0 00B#FFFFFFFF
(1557396618.064144) can0 012#FE070000
(1557396618.064526) can0 191#F8070000
(1557396618.064598) can0 190#D7070000
(1557396618.064701) can0 011#D5070000
(1557396618.064763) can0 192#64000000
(1557396618.064858) can0 010#F8070000
(1557396618.070038) can0 008#FFFFFFFF
(1557396618.070118) can0 00B#FFFFFFFF
(1557396618.084161) can0 012#F9070000
(1557396618.084537) can0 191#F8070000
(1557396618.084598) can0 190#D5070000
(1557396618.084731) can0 011#D5070000
(1557396618.084792) can0 192#62000000
(1557396618.084853) can0 010#F8070000
(1557396618.090037) can0 008#FFFFFFFF
(1557396618.090097) can0 00B#FFFFFFFF
(1557396618.104146) can0 012#FE070000
(1557396618.104523) can0 191#F8070000
(1557396618.104584) can0 190#D5070000
(1557396618.104714) can0 011#D5070000
(1557396618.104802) can0 192#62000000
(1557396618.104863) can0 010#F8070000
(1557396618.110054) can0 008#FFFFFFFF
(1557396618.110115) can0 00B#FFFFFFFF
(1557396618.124147) can0 012#FD070000
(1557396618.124524) can0 191#F8070000
(1557396618.124585) can0 190#D7070000
(1557396618.124714) can0 011#D5070000
(1557396618.124776) can0 192#61000000
(1557396618.124884) can0 010#F5070000
(1557396618.130060) can0 008#FFFFFFFF
(1557396618.130123) can0 00B#FFFFFFFF
(1557396618.144212) can0 012#FA070000
(1557396618.144537) can0 191#F8070000
(1557396618.144623) can0 190#D5070000
(1557396618.144697) can0 011#D5070000
(1557396618.144814) can0 192#62000000
(1557396618.144874) can0 00D#75010000
(1557396618.144938) can0 010#F5070000
(1557396618.150079) can0 008#FFFFFFFF
(1557396618.150198) can0 00B#FFFFFFFF
(1557396618.164151) can0 012#FD070000
(1557396618.164527) can0 191#F8070000
(1557396618.164589) can0 190#D5070000
(1557396618.164712) can0 011#D5070000
(1557396618.164776) can0 192#63000000
(1557396618.164886) can0 010#F5070000
(1557396618.170089) can0 008#FFFFFFFF
(1557396618.170152) can0 00B#FFFFFFFF
(1557396618.184152) can0 012#FB070000
(1557396618.184528) can0 191#F8070000
(1557396618.184589) can0 190#D5070000
(1557396618.184710) can0 011#D5070000
(1557396618.184771) can0 192#62000000
(1557396618.184885) can0 010#F8070000
(1557396618.190096) can0 008#FFFFFFFF
(1557396618.190159) can0 00B#FFFFFFFF
(1557396618.204152) can0 012#F9070000
(1557396618.204529) can0 191#F8070000
(1557396618.204590) can0 190#D5070000
(1557396618.204719) can0 011#D5070000
(1557396618.204806) can0 192#62000000
(1557396618.204868) can0 010#F8070000
(1557396618.210114) can0 008#FFFFFFFF
(1557396618.210175) can0 00B#FFFFFFFF
(1557396618.224151) can0 012#FE070000
(1557396618.224531) can0 191#F8070000
(1557396618.224591) can0 190#D7070000
(1557396618.224712) can0 011#D5070000
(1557396618.224800) can0 192#62000000
(1557396618.224861) can0 010#F8070000
(1557396618.230120) can0 008#FFFFFFFF
(1557396618.230177) can0 00B#FFFFFFFF
(1557396618.244154) can0 012#F1070000
(1557396618.244530) can0 191#F8070000
(1557396618.244591) can0 190#D5070000
(1557396618.244712) can0 011#D7070000
(1557396618.244773) can0 192#62000000
(1557396618.244891) can0 010#F5070000
(1557396618.250137) can0 008#FFFFFFFF
(1557396618.250198) can0 00B#FFFFFFFF
(1557396618.264157) can0 012#FD070000
(1557396618.264532) can0 191#F8070000
(1557396618.264593) can0 190#D5070000
(1557396618.264713) can0 011#D5070000
(1557396618.264775) can0 192#62000000
(1557396618.264892) can0 010#F5070000
(1557396618.270141) can0 008#FFFFFFFF
(1557396618.270202) can0 00B#FFFFFFFF
(1557396618.284155) can0 012#FB070000
(1557396618.284532) can0 191#F8070000
(1557396618.284593) can0 190#D7070000
(1557396618.284714) can0 011#D5070000
(1557396618.284775) can0 192#63000000
(1557396618.284892) can0 010#F8070000
(1557396618.288733) can0 048#00000000
(1557396618.288794) can0 025#14010000
(1557396618.290163) can0 008#FFFFFFFF
(1557396618.290225) can0 00B#FFFFFFFF
(1557396618.304156) can0 012#FD070000
(1557396618.304536) can0 191#F8070000
(1557396618.304596) can0 190#D5070000
(1557396618.304728) can0 011#D5070000
(1557396618.304789) can0 192#62000000
(1557396618.304878) can0 010#F8070000
(1557396618.309183) can0 048#00000000
(1557396618.309245) can0 025#FC000000
(1557396618.310181) can0 008#FFFFFFFF
(1557396618.310242) can0 00B#FFFFFFFF
(1557396618.324156) can0 012#00080000
(1557396618.324537) can0 191#F8070000
(1557396618.324599) can0 190#D7070000
(1557396618.324730) can0 011#D5070000
(1557396618.324791) can0 192#62000000
(1557396618.324851) can0 010#F5070000
(1557396618.328651) can0 048#00000000
(1557396618.328711) can0 025#14010000
(1557396618.330204) can0 008#FFFFFFFF
(1557396618.330265) can0 00B#FFFFFFFF
(1557396618.333870) can0 048#00000000
(1557396618.333930) can0 025#14010000
(1557396618.344170) can0 012#FE070000
(1557396618.344549) can0 191#F8070000
(1557396618.344610) can0 190#D5070000
(1557396618.344739) can0 011#D5070000
(1557396618.344799) can0 192#62000000
(1557396618.344912) can0 00D#75010000
(1557396618.344974) can0 010#F8070000
(1557396618.350221) can0 008#FFFFFFFF
(1557396618.350290) can0 00B#FFFFFFFF
(1557396618.364160) can0 012#FD070000
(1557396618.364537) can0 191#F8070000
(1557396618.364599) can0 190#D5070000
(1557396618.364728) can0 011#D5070000
(1557396618.364789) can0 192#62000000
(1557396618.364897) can0 010#F5070000
(1557396618.370227) can0 008#FFFFFFFF
(1557396618.370288) can0 00B#FFFFFFFF
(1557396618.384169) can0 012#01080000
(1557396618.384549) can0 191#F8070000
(1557396618.384610) can0 190#D5070000
(1557396618.384739) can0 011#D5070000
(1557396618.384801) can0 064#FFEFCDAB
(1557396618.384916) can0 192#62000000
(1557396618.384975) can0 010#F5070000
(1557396618.390258) can0 008#FFFFFFFF
(1557396618.390319) can0 00B#FFFFFFFF
(1557396618.404161) can0 012#FF070000
(1557396618.404539) can0 191#F8070000
(1557396618.404600) can0 190#D5070000
(1557396618.404721) can0 011#D5070000
(1557396618.404782) can0 192#62000000
(1557396618.404890) can0 010#F8070000
(1557396618.410268) can0 008#FFFFFFFF
(1557396618.410331) can0 00B#FFFFFFFF
(1557396618.424165) can0 012#FF070000
(1557396618.424542) can0 191#F8070000
(1557396618.424604) can0 190#D5070000
(1557396618.424723) can0 011#D5070000
(1557396618.424812) can0 192#61000000
(1557396618.424873) can0 010#F8070000
(1557396618.430270) can0 008#FFFFFFFF
(1557396618.430332) can0 00B#FFFFFFFF
(1557396618.444162) can0 012#FC070000
(1557396618.444541) can0 191#F8070000
(1557396618.444603) can0 190#D5070000
(1557396618.444722) can0 011#D5070000
(1557396618.444783) can0 192#63000000
(1557396618.444892) can0 010#F5070000
(1557396618.450289) can0 008#FFFFFFFF
(1557396618.450394) can0 00B#FFFFFFFF
(1557396618.464166) can0 012#FB070000
(1557396618.464543) can0 191#F8070000
(1557396618.464608) can0 190#D5070000
(1557396618.464715) can0 011#D5070000
(1557396618.464774) can0 192#62000000
(1557396618.464887) can0 010#F8070000
(1557396618.470300) can0 008#FFFFFFFF
(1557396618.470383) can0 00B#FFFFFFFF
(1557396618.484164) can0 012#FC070000
(1557396618.484541) can0 191#F8070000
(1557396618.484608) can0 190#D5070000
(1557396618.484717) can0 011#D5070000
(1557396618.484774) can0 192#62000000
(1557396618.484883) can0 010#F8070000
(1557396618.490302) can0 008#FFFFFFFF
(1557396618.490359) can0 00B#FFFFFFFF
(1557396618.504169) can0 012#F9070000
(1557396618.504544) can0 191#FA070000
(1557396618.504605) can0 190#D5070000
(1557396618.504728) can0 011#D5070000
(1557396618.504789) can0 192#63000000
(1557396618.504899) can0 010#F8070000
(1557396618.510329) can0 008#FFFFFFFF
(1557396618.510390) can0 00B#FFFFFFFF
(1557396618.524166) can0 012#FF070000
(1557396618.524546) can0 191#F8070000
(1557396618.524607) can0 190#D5070000
(1557396618.524727) can0 011#D5070000
(1557396618.524788) can0 192#63000000
(1557396618.524906) can0 010#F8070000
(1557396618.530336) can0 008#FFFFFFFF
(1557396618.530398) can0 00B#FFFFFFFF
(1557396618.544179) can0 012#F7070000
(1557396618.544560) can0 191#F8070000
(1557396618.544621) can0 190#D5070000
(1557396618.544741) can0 011#D5070000
(1557396618.544802) can0 192#63000000
(1557396618.544924) can0 00D#76010000
(1557396618.544985) can0 010#F5070000
(1557396618.546212) can0 020#01000000
(1557396618.550339) can0 008#FFFFFFFF
(1557396618.550406) can0 00B#FFFFFFFF
(1557396618.564170) can0 012#FD070000
(1557396618.564548) can0 191#F8070000
(1557396618.564609) can0 190#D5070000
(1557396618.564739) can0 011#D5070000
(1557396618.564800) can0 192#62000000
(1557396618.564910) can0 010#F8070000
(1557396618.570358) can0 008#FFFFFFFF
(1557396618.570419) can0 00B#FFFFFFFF
(1557396618.584189) can0 012#F7070000
(1557396618.584560) can0 191#F8070000
(1557396618.584621) can0 190#D5070000
(1557396618.584753) can0 011#D5070000
(1557396618.584814) can0 192#61000000
(1557396618.584927) can0 010#F8070000
(1557396618.590370) can0 008#FFFFFFFF
(1557396618.590432) can0 00B#FFFFFFFF
(1557396618.604174) can0 012#FB070000
(1557396618.610379) can0 008#FFFFFFFF
(1557396618.610440) can0 00B#FFFFFFFF
(1557396618.615202) can0 191#F8070000
(1557396618.615263) can0 190#D5070000
(1557396618.615394) can0 011#D5070000
(1557396618.615454) can0 192#62000000
(1557396618.615519) can0 010#F5070000
(1557396618.624184) can0 012#FB070000
(1557396618.624552) can0 191#F8070000
(1557396618.624613) can0 190#D5070000
(1557396618.624742) can0 011#D5070000
(1557396618.624802) can0 192#62000000
(1557396618.624915) can0 010#F5070000
(1557396618.630381) can0 008#FFFFFFFF
(1557396618.630446) can0 00B#FFFFFFFF
(1557396618.636782) can0 048#00000000
(1557396618.636838) can0 025#14010000
(1557396618.644186) can0 012#F9070000
(1557396618.644553) can0 191#F8070000
(1557396618.644614) can0 190#D5070000
(1557396618.644744) can0 011#D5070000
(1557396618.644804) can0 192#62000000
(1557396618.644913) can0 010#F8070000
(1557396618.650400) can0 008#FFFFFFFF
(1557396618.650467) can0 00B#FFFFFFFF
(1557396618.657260) can0 048#00000000
(1557396618.657321) can0 025#FC000000
(1557396618.664188) can0 012#FD070000
(1557396618.664553) can0 191#F8070000
(1557396618.664614) can0 190#D7070000
(1557396618.664735) can0 011#D7070000
(1557396618.664795) can0 192#63000000
(1557396618.664905) can0 010#F5070000
(1557396618.670421) can0 008#FFFFFFFF
(1557396618.670482) can0 00B#FFFFFFFF
(1557396618.672710) can0 048#00000000
(1557396618.672818) can0 025#14010000
(1557396618.677676) can0 048#00000000
(1557396618.677737) can0 025#14010000
(1557396618.682641) can0 048#00000000
(1557396618.682702) can0 025#14010000
(1557396618.684187) can0 012#FF070000
(1557396618.684555) can0 191#F8070000
(1557396618.684616) can0 190#D5070000
(1557396618.684736) can0 011#D5070000
(1557396618.684798) can0 192#62000000
(1557396618.684907) can0 010#F8070000
(1557396618.688600) can0 048#00000000
(1557396618.688661) can0 025#14010000
(1557396618.690433) can0 008#FFFFFFFF
(1557396618.690497) can0 00B#FFFFFFFF
(1557396618.704188) can0 012#FC070000
(1557396618.704555) can0 191#F8070000
(1557396618.704617) can0 190#D7070000
(1557396618.704725) can0 011#D7070000
(1557396618.704781) can0 192#63000000
(1557396618.704895) can0 010#F8070000
(1557396618.710440) can0 008#FFFFFFFF
(1557396618.710497) can0 00B#FFFFFFFF
(1557396618.724190) can0 012#FD070000
(1557396618.724557) can0 191#F8070000
(1557396618.724618) can0 190#D5070000
(1557396618.724739) can0 011#D5070000
(1557396618.724800) can0 192#63000000
(1557396618.724909) can0 010#F8070000
(1557396618.730442) can0 008#FFFFFFFF
(1557396618.730506) can0 00B#FFFFFFFF
(1557396618.744203) can0 012#FC070000
(1557396618.744570) can0 191#F8070000
(1557396618.744632) can0 190#D5070000
(1557396618.744752) can0 011#D5070000
(1557396618.744812) can0 192#61000000
(1557396618.744925) can0 00D#74010000
(1557396618.744986) can0 010#F5070000
(1557396618.750455) can0 008#FFFFFFFF
(1557396618.750520) can0 00B#FFFFFFFF
(1557396618.764192) can0 012#FD070000
(1557396618.764560) can0 191#F8070000
(1557396618.764622) can0 190#D5070000
(1557396618.764741) can0 011#D5070000
(1557396618.764801) can0 192#64000000
(1557396618.764910) can0 010#F5070000
(1557396618.770479) can0 008#FFFFFFFF
(1557396618.770540) can0 00B#FFFFFFFF
(1557396618.784206) can0 012#F8070000
(1557396618.784573) can0 191#F8070000
(1557396618.784635) can0 190#D5070000
(1557396618.784754) can0 011#D5070000
(1557396618.784814) can0 064#FFEFCDAB
(1557396618.784938) can0 192#62000000
(1557396618.785002) can0 010#F8070000
(1557396618.790486) can0 008#FFFFFFFF
(1557396618.790547) can0 00B#FFFFFFFF
(1557396618.804194) can0 012#FD070000
(1557396618.804561) can0 191#F8070000
(1557396618.804623) can0 190#D5070000
(1557396618.804741) can0 011#D5070000
(1557396618.804802) can0 192#63000000
(1557396618.804919) can0 010#F5070000
(1557396618.810508) can0 008#FFFFFFFF
(1557396618.810569) can0 00B#FFFFFFFF
(1557396618.824195) can0 012#FE070000
(1557396618.824563) can0 191#F8070000
(1557396618.824625) can0 190#D5070000
(1557396618.824753) can0 011#D5070000
(1557396618.824814) can0 192#62000000
(1557396618.824956) can0 010#F8070000
(1557396618.830526) can0 008#FFFFFFFF
(1557396618.830586) can0 00B#FFFFFFFF
(1557396618.844197) can0 012#F9070000
(1557396618.844563) can0 191#F8070000
(1557396618.844625) can0 190#D5070000
(1557396618.844754) can0 011#D5070000
(1557396618.844815) can0 192#62000000
(1557396618.844924) can0 010#F8070000
(1557396618.850531) can0 008#FFFFFFFF
(1557396618.850599) can0 00B#FFFFFFFF
(1557396618.864199) can0 012#FD070000
(1557396618.864564) can0 191#F8070000
(1557396618.864626) can0 190#D5070000
(1557396618.864755) can0 011#D5070000
(1557396618.864815) can0 192#62000000
(1557396618.864928) can0 010#F8070000
(1557396618.870539) can0 008#FFFFFFFF
(1557396618.870601) can0 00B#FFFFFFFF
(1557396618.884198) can0 012#FC070000
(1557396618.884565) can0 191#F8070000
(1557396618.884627) can0 190#D5070000
(1557396618.884756) can0 011#D5070000
(1557396618.884817) can0 192#62000000
(1557396618.884926) can0 010#F8070000
(1557396618.890557) can0 008#FFFFFFFF
(1557396618.890617) can0 00B#FFFFFFFF
(1557396618.904199) can0 012#FF070000
(1557396618.904566) can0 191#F8070000
(1557396618.904629) can0 190#D5070000
(1557396618.904757) can0 011#D5070000
(1557396618.904817) can0 192#63000000
(1557396618.904938) can0 010#F8070000
(1557396618.910563) can0 008#FFFFFFFF
(1557396618.910625) can0 00B#FFFFFFFF
(1557396618.924200) can0 012#FC070000
(1557396618.924568) can0 191#F8070000
(1557396618.924630) can0 190#D5070000
(1557396618.924759) can0 011#D5070000
(1557396618.924819) can0 192#62000000
(1557396618.924928) can0 010#F8070000
(1557396618.930568) can0 008#FFFFFFFF
(1557396618.930630) can0 00B#FFFFFFFF
(1557396618.944213) can0 012#FA070000
(1557396618.944581) can0 191#F8070000
(1557396618.944643) can0 190#D5070000
(1557396618.944761) can0 011#D5070000
(1557396618.944822) can0 192#62000000
(1557396618.944934) can0 00D#76010000
(1557396618.945002) can0 010#F5070000
(1557396618.950577) can0 008#FFFFFFFF
(1557396618.950642) can0 00B#FFFFFFFF
(1557396618.964202) can0 012#FE070000
(1557396618.964571) can0 191#F8070000
(1557396618.964633) can0 190#D5070000
(1557396618.964753) can0 011#D5070000
(1557396618.964814) can0 192#64000000
(1557396618.964923) can0 010#F8070000
(1557396618.970603) can0 008#FFFFFFFF
(1557396618.970665) can0 00B#FFFFFFFF
(1557396618.984216) can0 012#FC070000
(1557396618.984583) can0 191#F8070000
(1557396618.984670) can0 190#D5070000
(1557396618.984731) can0 011#D5070000
(1557396618.984842) can0 192#63000000
(1557396618.984934) can0 010#F8070000
(1557396618.989169) can0 048#00000000
(1557396618.989230) can0 025#14010000
(1557396618.990622) can0 008#FFFFFFFF
(1557396618.990683) can0 00B#FFFFFFFF
(1557396619.004203) can0 012#FC070000
(1557396619.004572) can0 191#F8070000
(1557396619.004634) can0 190#D5070000
(1557396619.004753) can0 011#D5070000
(1557396619.004813) can0 192#63000000
(1557396619.004923) can0 010#F8070000
(1557396619.009652) can0 048#00000000
(1557396619.009714) can0 025#FC000000
(1557396619.010632) can0 008#FFFFFFFF
(1557396619.010693) can0 00B#FFFFFFFF
(1557396619.023052) can0 048#00000000
(1557396619.023114) can0 025#14010000
(1557396619.024191) can0 012#FB070000
(1557396619.024572) can0 191#F8070000
(1557396619.024633) can0 190#D5070000
(1557396619.024754) can0 011#D5070000
(1557396619.024814) can0 192#62000000
(1557396619.024935) can0 010#F8070000
(1557396619.028046) can0 048#00000000
(1557396619.028107) can0 025#14010000
(1557396619.030656) can0 008#FFFFFFFF
(1557396619.030717) can0 00B#FFFFFFFF
(1557396619.033198) can0 048#00000000
(1557396619.033259) can0 025#14010000
(1557396619.038421) can0 048#00000000
(1557396619.038482) can0 025#14010000
(1557396619.042968) can0 048#00000000
(1557396619.043042) can0 025#14010000
(1557396619.044193) can0 012#FD070000
(1557396619.044573) can0 191#F8070000
(1557396619.044634) can0 190#D5070000
(1557396619.044754) can0 011#D5070000
(1557396619.044814) can0 192#62000000
(1557396619.044923) can0 010#F8070000
(1557396619.050684) can0 008#FFFFFFFF
(1557396619.050741) can0 00B#FFFFFFFF
(1557396619.064199) can0 012#FA070000
(1557396619.064575) can0 191#F8070000
(1557396619.064637) can0 190#D5070000
(1557396619.064758) can0 011#D5070000
(1557396619.064819) can0 192#62000000
(1557396619.064940) can0 010#F5070000
(1557396619.070663) can0 008#FFFFFFFF
(1557396619.070725) can0 00B#FFFFFFFF
(1557396619.084211) can0 012#FD070000
(1557396619.084588) can0 191#F8070000
(1557396619.084651) can0 190#D7070000
(1557396619.084770) can0 011#D5070000
(1557396619.084831) can0 192#61000000
(1557396619.084980) can0 010#F5070000
(1557396619.090682) can0 008#FFFFFFFF
(1557396619.090744) can0 00B#FFFFFFFF
(1557396619.104198) can0 012#FD070000
(1557396619.104576) can0 191#F8070000
(1557396619.104637) can0 190#D5070000
(1557396619.104767) can0 011#D5070000
(1557396619.104827) can0 192#61000000
(1557396619.104940) can0 010#F8070000
(1557396619.110691) can0 008#FFFFFFFF
(1557396619.110753) can0 00B#FFFFFFFF
(1557396619.124198) can0 012#FC070000
(1557396619.124578) can0 191#F8070000
(1557396619.124639) can0 190#D5070000
(1557396619.124770) can0 011#D7070000
(1557396619.124831) can0 192#63000000
(1557396619.124939) can0 010#F8070000
(1557396619.130696) can0 008#FFFFFFFF
(1557396619.130758) can0 00B#FFFFFFFF
(1557396619.144216) can0 012#FE070000
(1557396619.144590) can0 191#F8070000
(1557396619.144652) can0 190#D5070000
(1557396619.144782) can0 011#D5070000
(1557396619.144842) can0 192#62000000
(1557396619.144907) can0 00D#75010000
(1557396619.145019) can0 010#F8070000
(1557396619.150708) can0 008#FFFFFFFF
(1557396619.150771) can0 00B#FFFFFFFF
(1557396619.164202) can0 012#FD070000
(1557396619.164580) can0 191#F8070000
(1557396619.164643) can0 190#D5070000
(1557396619.164772) can0 011#D5070000
(1557396619.164846) can0 192#62000000
(1557396619.164906) can0 010#F5070000
(1557396619.170729) can0 008#FFFFFFFF
(1557396619.170791) can0 00B#FFFFFFFF
(1557396619.184214) can0 012#FA070000
(1557396619.184592) can0 191#F8070000
(1557396619.184654) can0 190#D5070000
(1557396619.184783) can0 011#D5070000
(1557396619.184845) can0 064#FFEFCDAB
(1557396619.184957) can0 192#62000000
(1557396619.185047) can0 010#F5070000
(1557396619.190732) can0 008#FFFFFFFF
(1557396619.190793) can0 00B#FFFFFFFF
(1557396619.204204) can0 012#FC070000
(1557396619.204581) can0 191#F8070000
(1557396619.204643) can0 190#D5070000
(1557396619.204763) can0 011#D5070000
(1557396619.204824) can0 192#61000000
(1557396619.204932) can0 010#F5070000
(1557396619.210738) can0 008#FFFFFFFF
(1557396619.210799) can0 00B#FFFFFFFF
(1557396619.224205) can0 012#FF070000
(1557396619.224583) can0 191#F8070000
(1557396619.224670) can0 190#D5070000
(1557396619.224731) can0 011#D5070000
(1557396619.224842) can0 192#63000000
(1557396619.224907) can0 010#F5070000
(1557396619.230757) can0 008#FFFFFFFF
(1557396619.230817) can0 00B#FFFFFFFF
(1557396619.244205) can0 012#FB070000
(1557396619.244584) can0 191#F8070000
(1557396619.244670) can0 190#D5070000
(1557396619.244732) can0 011#D5070000
(1557396619.244845) can0 192#62000000
(1557396619.244905) can0 010#F8070000
(1557396619.250756) can0 008#FFFFFFFF
(1557396619.250823) can0 00B#FFFFFFFF
(1557396619.264206) can0 012#FC070000
(1557396619.264585) can0 191#F8070000
(1557396619.264673) can0 190#D5070000
(1557396619.264734) can0 011#D7070000
(1557396619.264846) can0 192#63000000
(1557396619.264911) can0 010#F5070000
(1557396619.270772) can0 008#FFFFFFFF
(1557396619.270833) can0 00B#FFFFFFFF
(1557396619.284207) can0 012#FC070000
(1557396619.284585) can0 191#F8070000
(1557396619.284672) can0 190#D5070000
(1557396619.284734) can0 011#D5070000
(1557396619.284842) can0 192#62000000
(1557396619.284905) can0 010#F8070000
(1557396619.290788) can0 008#FFFFFFFF
(1557396619.290851) can0 00B#FFFFFFFF
(1557396619.304208) can0 012#FE070000
(1557396619.304588) can0 191#F8070000
(1557396619.304650) can0 190#D5070000
(1557396619.304771) can0 011#D5070000
(1557396619.304832) can0 192#62000000
(1557396619.304944) can0 010#F8070000
(1557396619.310808) can0 008#FFFFFFFF
(1557396619.310865) can0 00B#FFFFFFFF
(1557396619.324209) can0 012#FA070000
(1557396619.324590) can0 191#F8070000
(1557396619.324678) can0 190#D5070000
(1557396619.324739) can0 011#D5070000
(1557396619.324851) can0 192#62000000
(1557396619.324911) can0 010#F8070000
(1557396619.330814) can0 008#FFFFFFFF
(1557396619.330877) can0 00B#FFFFFFFF
(1557396619.340524) can0 048#00000000
(1557396619.340653) can0 025#14010000
(1557396619.344222) can0 012#FF070000
(1557396619.344601) can0 191#F8070000
(1557396619.344662) can0 190#D5070000
(1557396619.344782) can0 011#D5070000
(1557396619.344844) can0 192#62000000
(1557396619.344965) can0 00D#75010000
(1557396619.345028) can0 010#F8070000
(1557396619.350822) can0 008#FFFFFFFF
(1557396619.350946) can0 00B#FFFFFFFF
(1557396619.361003) can0 048#00000000
(1557396619.361064) can0 025#FC000000
(1557396619.364210) can0 012#FB070000
(1557396619.364589) can0 191#F8070000
(1557396619.364676) can0 190#D5070000
(1557396619.364737) can0 011#D5070000
(1557396619.364867) can0 192#62000000
(1557396619.364929) can0 010#F8070000
(1557396619.370831) can0 008#FFFFFFFF
(1557396619.370893) can0 00B#FFFFFFFF
(1557396619.380602) can0 048#00000000
(1557396619.380663) can0 025#14010000
(1557396619.384211) can0 012#FC070000
(1557396619.384590) can0 191#F8070000
(1557396619.384653) can0 190#D5070000
(1557396619.384783) can0 011#D5070000
(1557396619.384844) can0 192#63000000
(1557396619.384908) can0 010#F8070000
(1557396619.385579) can0 048#00000000
(1557396619.385641) can0 025#14010000
(1557396619.389597) can0 048#00000000
(1557396619.389659) can0 025#14010000
(1557396619.390853) can0 008#FFFFFFFF
(1557396619.390916) can0 00B#FFFFFFFF
(1557396619.404213) can0 012#FA070000
(1557396619.404593) can0 191#F8070000
(1557396619.404649) can0 190#D5070000
(1557396619.404774) can0 011#D5070000
(1557396619.404830) can0 192#63000000
(1557396619.404938) can0 010#F5070000
(1557396619.410861) can0 008#FFFFFFFF
(1557396619.410917) can0 00B#FFFFFFFF
(1557396619.424214) can0 012#FF070000
(1557396619.424594) can0 191#F8070000
(1557396619.424655) can0 190#D5070000
(1557396619.424785) can0 011#D5070000
(1557396619.424846) can0 192#62000000
(1557396619.424957) can0 010#F8070000
(1557396619.430874) can0 008#FFFFFFFF
(1557396619.430934) can0 00B#FFFFFFFF
(1557396619.444216) can0 012#FE070000
(1557396619.444595) can0 191#F8070000
(1557396619.444656) can0 190#D5070000
(1557396619.444786) can0 011#D5070000
(1557396619.444847) can0 192#62000000
(1557396619.444955) can0 010#F8070000
(1557396619.450890) can0 008#FFFFFFFF
(1557396619.450955) can0 00B#FFFFFFFF
(1557396619.464219) can0 012#F9070000
(1557396619.464597) can0 191#F8070000
(1557396619.464659) can0 190#D5070000
(1557396619.464789) can0 011#D5070000
(1557396619.464849) can0 192#62000000
(1557396619.464961) can0 010#F5070000
(1557396619.470911) can0 008#FFFFFFFF
(1557396619.470973) can0 00B#FFFFFFFF
(1557396619.484219) can0 012#FF070000
(1557396619.484597) can0 191#F8070000
(1557396619.484658) can0 190#D5070000
(1557396619.484779) can0 011#D5070000
(1557396619.484839) can0 192#63000000
(1557396619.484947) can0 010#F8070000
(1557396619.490933) can0 008#FFFFFFFF
(1557396619.490995) can0 00B#FFFFFFFF
(1557396619.504220) can0 012#FE070000
(1557396619.504598) can0 191#F8070000
(1557396619.504659) can0 190#D5070000
(1557396619.504780) can0 011#D5070000
(1557396619.504841) can0 192#62000000
(1557396619.504954) can0 010#F5070000
(1557396619.510940) can0 008#FFFFFFFF
(1557396619.511002) can0 00B#FFFFFFFF
(1557396619.524221) can0 012#FC070000
(1557396619.524600) can0 191#F8070000
(1557396619.524661) can0 190#D5070000
(1557396619.524782) can0 011#D5070000
(1557396619.524844) can0 192#62000000
(1557396619.524952) can0 010#F5070000
(1557396619.530964) can0 008#FFFFFFFF
(1557396619.531026) can0 00B#FFFFFFFF
(1557396619.544233) can0 012#FB070000
(1557396619.544612) can0 191#F8070000
(1557396619.544672) can0 190#D5070000
(1557396619.544794) can0 011#D5070000
(1557396619.544855) can0 192#62000000
(1557396619.544974) can0 00D#76010000
(1557396619.545063) can0 010#F8070000
(1557396619.546247) can0 020#01000000
(1557396619.550975) can0 008#FFFFFFFF
(1557396619.551032) can0 00B#FFFFFFFF
(1557396619.564224) can0 012#FD070000
(1557396619.564603) can0 191#F8070000
(1557396619.564664) can0 190#D5070000
(1557396619.564786) can0 011#D5070000
(1557396619.564847) can0 192#62000000
(1557396619.564956) can0 010#F8070000
(1557396619.570981) can0 008#FFFFFFFF
(1557396619.571042) can0 00B#FFFFFFFF
(1557396619.584248) can0 012#FF070000
(1557396619.584627) can0 191#F8070000
(1557396619.584688) can0 190#D5070000
(1557396619.584808) can0 011#D5070000
(1557396619.584870) can0 064#FFEFCDAB
(1557396619.584992) can0 192#62000000
(1557396619.585054) can0 010#F8070000
(1557396619.591005) can0 008#FFFFFFFF
(1557396619.591066) can0 00B#FFFFFFFF
(1557396619.604223) can0 012#FF070000
(1557396619.611010) can0 008#FFFFFFFF
(1557396619.611071) can0 00B#FFFFFFFF
(1557396619.615256) can0 191#F8070000
(1557396619.615318) can0 190#D5070000
(1557396619.615452) can0 011#D5070000
(1557396619.615514) can0 192#62000000
(1557396619.615576) can0 010#F8070000
(1557396619.624236) can0 012#FB070000
(1557396619.624604) can0 191#F8070000
(1557396619.624665) can0 190#D5070000
(1557396619.624786) can0 011#D5070000
(1557396619.624849) can0 192#62000000
(1557396619.624941) can0 010#F5070000
(1557396619.631030) can0 008#FFFFFFFF
(1557396619.631088) can0 00B#FFFFFFFF
(1557396619.644286) can0 012#FE070000
(1557396619.644607) can0 191#F8070000
(1557396619.644670) can0 190#D5070000
(1557396619.644755) can0 011#D5070000
(1557396619.644882) can0 192#62000000
(1557396619.644943) can0 010#F8070000
(1557396619.651043) can0 008#FFFFFFFF
(1557396619.651164) can0 00B#FFFFFFFF
(1557396619.664241) can0 012#FE070000
(1557396619.664608) can0 191#F8070000
(1557396619.664670) can0 190#D5070000
(1557396619.664811) can0 011#D5070000
(1557396619.664878) can0 192#62000000
(1557396619.664940) can0 010#F8070000
(1557396619.671057) can0 008#FFFFFFFF
(1557396619.671166) can0 00B#FFFFFFFF
(1557396619.684244) can0 012#FE070000
(1557396619.684610) can0 191#F8070000
(1557396619.684680) can0 190#D5070000
(1557396619.684777) can0 011#D5070000
(1557396619.684836) can0 192#62000000
(1557396619.684948) can0 010#F8070000
(1557396619.691059) can0 008#FFFFFFFF
(1557396619.691143) can0 00B#FFFFFFFF
(1557396619.693086) can0 048#00000000
(1557396619.693144) can0 025#14010000
(1557396619.704243) can0 012#FE070000
(1557396619.704610) can0 191#F8070000
(1557396619.704671) can0 190#D5070000
(1557396619.704811) can0 011#D5070000
(1557396619.704878) can0 192#62000000
(1557396619.704938) can0 010#F8070000
(1557396619.711064) can0 008#FFFFFFFF
(1557396619.711127) can0 00B#FFFFFFFF
(1557396619.713563) can0 048#00000000
(1557396619.713626) can0 025#FC000000
(1557396619.724244) can0 012#FE070000
(1557396619.724611) can0 191#F8070000
(1557396619.724674) can0 190#D7070000
(1557396619.724813) can0 011#D5070000
(1557396619.724875) can0 192#62000000
(1557396619.724935) can0 010#F5070000
(1557396619.730568) can0 048#00000000
(1557396619.730631) can0 025#14010000
(1557396619.731069) can0 008#FFFFFFFF
(1557396619.731131) can0 00B#FFFFFFFF
(1557396619.735689) can0 048#00000000
(1557396619.735751) can0 025#14010000
(1557396619.740296) can0 048#00000000
(1557396619.740357) can0 025#14010000
(1557396619.744256) can0 012#FC070000
(1557396619.744625) can0 191#F8070000
(1557396619.744687) can0 190#D7070000
(1557396619.744814) can0 011#D5070000
(1557396619.744879) can0 192#63000000
(1557396619.744938) can0 00D#75010000
(1557396619.745058) can0 010#F8070000
(1557396619.745928) can0 048#00000000
(1557396619.746025) can0 025#14010000
(1557396619.751095) can0 008#FFFFFFFF
(1557396619.751152) can0 00B#FFFFFFFF
(1557396619.754469) can0 048#00000000
(1557396619.754531) can0 025#14010000
(1557396619.764246) can0 012#FC070000
(1557396619.764612) can0 191#FA070000
(1557396619.764674) can0 190#D5070000
(1557396619.764803) can0 011#D5070000
(1557396619.764864) can0 192#63000000
(1557396619.764980) can0 010#F8070000
(1557396619.771105) can0 008#FFFFFFFF
(1557396619.771167) can0 00B#FFFFFFFF
(1557396619.784248) can0 012#FA070000
(1557396619.784613) can0 191#F8070000
(1557396619.784674) can0 190#D5070000
(1557396619.784803) can0 011#D5070000
(1557396619.784864) can0 192#64000000
(1557396619.784927) can0 010#F5070000
(1557396619.791107) can0 008#FFFFFFFF
(1557396619.791168) can0 00B#FFFFFFFF
(1557396619.804248) can0 012#FF070000
(1557396619.804614) can0 191#F8070000
(1557396619.804675) can0 190#D5070000
(1557396619.804804) can0 011#D5070000
(1557396619.804864) can0 192#63000000
(1557396619.804981) can0 010#F5070000
(1557396619.811127) can0 008#FFFFFFFF
(1557396619.811189) can0 00B#FFFFFFFF
(1557396619.824250) can0 012#FA070000
(1557396619.824618) can0 191#F8070000
(1557396619.824679) can0 190#D5070000
(1557396619.824807) can0 011#D5070000
(1557396619.824869) can0 192#62000000
(1557396619.824932) can0 010#F5070000
(1557396619.831131) can0 008#FFFFFFFF
(1557396619.831193) can0 00B#FFFFFFFF
(1557396619.844250) can0 012#FF070000
(1557396619.844617) can0 191#F8070000
(1557396619.844678) can0 190#D5070000
(1557396619.844807) can0 011#D5070000
(1557396619.844868) can0 192#62000000
(1557396619.844984) can0 010#F8070000
(1557396619.851160) can0 008#FFFFFFFF
(1557396619.851218) can0 00B#FFFFFFFF
(1557396619.864254) can0 012#FC070000
(1557396619.864618) can0 191#FA070000
(1557396619.864679) can0 190#D7070000
(1557396619.864809) can0 011#D7070000
(1557396619.864870) can0 192#61000000
(1557396619.864933) can0 010#F8070000
(1557396619.871157) can0 008#FFFFFFFF
(1557396619.871218) can0 00B#FFFFFFFF
(1557396619.884253) can0 012#FE070000
(1557396619.884620) can0 191#F8070000
(1557396619.884681) can0 190#D5070000
(1557396619.884808) can0 011#D5070000
(1557396619.884870) can0 192#63000000
(1557396619.884996) can0 010#F8070000
(1557396619.891179) can0 008#FFFFFFFF
(1557396619.891240) can0 00B#FFFFFFFF
(1557396619.904253) can0 012#FB070000
(1557396619.904621) can0 191#F8070000
(1557396619.904681) can0 190#D5070000
(1557396619.904819) can0 011#D5070000
(1557396619.904881) can0 192#62000000
(1557396619.904940) can0 010#F8070000
(1557396619.911181) can0 008#FFFFFFFF
(1557396619.911242) can0 00B#FFFFFFFF
(1557396619.924255) can0 012#FD070000
(1557396619.924623) can0 191#F8070000
(1557396619.924684) can0 190#D5070000
(1557396619.924822) can0 011#D5070000
(1557396619.924885) can0 192#62000000
(1557396619.924944) can0 010#F5070000
(1557396619.931202) can0 008#FFFFFFFF
(1557396619.931265) can0 00B#FFFFFFFF
(1557396619.944268) can0 012#FC070000
(1557396619.944636) can0 191#F5070000
(1557396619.944696) can0 190#D7070000
(1557396619.944834) can0 011#D5070000
(1557396619.944924) can0 192#62000000
(1557396619.944984) can0 00D#77010000
(1557396619.945046) can0 010#F5070000
(1557396619.951205) can0 008#FFFFFFFF
(1557396619.951268) can0 00B#FFFFFFFF
(1557396619.964255) can0 012#FE070000
(1557396619.964624) can0 191#F8070000
(1557396619.964686) can0 190#D5070000
(1557396619.964822) can0 011#D5070000
(1557396619.964882) can0 192#63000000
(1557396619.964942) can0 010#F8070000
(1557396619.971233) can0 008#FFFFFFFF
(1557396619.971294) can0 00B#FFFFFFFF
(1557396619.984270) can0 012#FC070000
(1557396619.984638) can0 191#F8070000
(1557396619.984699) can0 190#D7070000
(1557396619.984836) can0 011#D5070000
(1557396619.984917) can0 064#FFEFCDAB
(1557396619.984978) can0 192#62000000
(1557396619.985039) can0 010#F8070000
(1557396619.991239) can0 008#FFFFFFFF
(1557396619.991300) can0 00B#FFFFFFFF
(1557396620.004258) can0 012#FC070000
(1557396620.004626) can0 191#F8070000
(1557396620.004687) can0 190#D5070000
(1557396620.004825) can0 011#D5070000
(1557396620.004886) can0 192#63000000
(1557396620.004945) can0 010#F8070000
(1557396620.011245) can0 008#FFFFFFFF
(1557396620.011306) can0 00B#FFFFFFFF
(1557396620.024262) can0 012#FC070000
(1557396620.024627) can0 191#F8070000
(1557396620.024688) can0 190#D5070000
(1557396620.024819) can0 011#D5070000
(1557396620.024881) can0 192#62000000
(1557396620.024999) can0 010#F8070000
(1557396620.031264) can0 008#FFFFFFFF
(1557396620.031325) can0 00B#FFFFFFFF
(1557396620.042723) can0 048#00000000
(1557396620.042900) can0 025#14010000
(1557396620.044261) can0 012#FF070000
(1557396620.044628) can0 191#F8070000
(1557396620.044685) can0 190#D5070000
(1557396620.044794) can0 011#D5070000
(1557396620.044850) can0 192#63000000
(1557396620.044969) can0 010#F5070000
(1557396620.051289) can0 008#FFFFFFFF
(1557396620.051346) can0 00B#FFFFFFFF
(1557396620.063167) can0 048#00000000
(1557396620.063228) can0 025#FC000000
(1557396620.064259) can0 012#FB070000
(1557396620.064629) can0 191#F8070000
(1557396620.064690) can0 190#D5070000
(1557396620.064818) can0 011#D5070000
(1557396620.064881) can0 192#62000000
(1557396620.064998) can0 010#F5070000
(1557396620.071278) can0 008#FFFFFFFF
(1557396620.071340) can0 00B#FFFFFFFF
(1557396620.080684) can0 048#00000000
(1557396620.080746) can0 025#14010000
(1557396620.084275) can0 012#FC070000
(1557396620.084643) can0 191#F8070000
(1557396620.084704) can0 190#D7070000
(1557396620.084833) can0 011#D7070000
(1557396620.084920) can0 192#62000000
(1557396620.084981) can0 010#F8070000
(1557396620.085802) can0 048#00000000
(1557396620.085866) can0 025#14010000
(1557396620.090923) can0 048#00000000
(1557396620.091294) can0 008#FFFFFFFF
(1557396620.091350) can0 00B#FFFFFFFF
(1557396620.093067) can0 025#14010000
(1557396620.104264) can0 012#FE070000
(1557396620.104630) can0 191#F8070000
(1557396620.104686) can0 190#D5070000
(1557396620.104796) can0 011#D5070000
(1557396620.104887) can0 192#63000000
(1557396620.104943) can0 010#F8070000
(1557396620.111312) can0 008#FFFFFFFF
(1557396620.111370) can0 00B#FFFFFFFF
(1557396620.124266) can0 012#FB070000
(1557396620.124633) can0 191#F8070000
(1557396620.124721) can0 190#D7070000
(1557396620.124781) can0 011#D7070000
(1557396620.124902) can0 192#62000000
(1557396620.124963) can0 010#F8070000
(1557396620.131327) can0 008#FFFFFFFF
(1557396620.131390) can0 00B#FFFFFFFF
(1557396620.144281) can0 012#FF070000
(1557396620.144646) can0 191#F8070000
(1557396620.144707) can0 190#D5070000
(1557396620.144834) can0 011#D5070000
(1557396620.144897) can0 192#62000000
(1557396620.145026) can0 00D#77010000
(1557396620.145087) can0 010#F5070000
(1557396620.151331) can0 008#FFFFFFFF
(1557396620.151400) can0 00B#FFFFFFFF
(1557396620.164267) can0 012#00080000
(1557396620.164634) can0 191#F8070000
(1557396620.164696) can0 190#D5070000
(1557396620.164833) can0 011#D5070000
(1557396620.164895) can0 192#63000000
(1557396620.164954) can0 010#F5070000
(1557396620.171356) can0 008#FFFFFFFF
(1557396620.171416) can0 00B#FFFFFFFF
(1557396620.184269) can0 012#FA070000
(1557396620.184635) can0 191#F8070000
(1557396620.184695) can0 190#D5070000
(1557396620.184834) can0 011#D5070000
(1557396620.184924) can0 192#63000000
(1557396620.184987) can0 010#F8070000
(1557396620.191361) can0 008#FFFFFFFF
(1557396620.191422) can0 00B#FFFFFFFF
(1557396620.204268) can0 012#F7070000
(1557396620.204635) can0 191#F8070000
(1557396620.204696) can0 190#D5070000
(1557396620.204832) can0 011#D5070000
(1557396620.204917) can0 192#62000000
(1557396620.204978) can0 010#F8070000
(1557396620.211384) can0 008#FFFFFFFF
(1557396620.211446) can0 00B#FFFFFFFF
(1557396620.224272) can0 012#FC070000
(1557396620.224638) can0 191#F8070000
(1557396620.224699) can0 190#D5070000
(1557396620.224836) can0 011#D5070000
(1557396620.224902) can0 192#63000000
(1557396620.224962) can0 010#F8070000
(1557396620.231388) can0 008#FFFFFFFF
(1557396620.231448) can0 00B#FFFFFFFF
(1557396620.244272) can0 012#FA070000
(1557396620.244639) can0 191#F8070000
(1557396620.244700) can0 190#D5070000
(1557396620.244839) can0 011#D5070000
(1557396620.244924) can0 192#62000000
(1557396620.244985) can0 010#F5070000
(1557396620.251410) can0 008#FFFFFFFF
(1557396620.251475) can0 00B#FFFFFFFF
(1557396620.264272) can0 012#FF070000
(1557396620.264640) can0 191#F8070000
(1557396620.264705) can0 190#D5070000
(1557396620.264808) can0 011#D7070000
(1557396620.264866) can0 192#63000000
(1557396620.264990) can0 010#F5070000
(1557396620.271417) can0 008#FFFFFFFF
(1557396620.271474) can0 00B#FFFFFFFF
(1557396620.284274) can0 012#FE070000
(1557396620.284641) can0 191#F8070000
(1557396620.284702) can0 190#D5070000
(1557396620.284829) can0 011#D5070000
(1557396620.284916) can0 192#63000000
(1557396620.284976) can0 010#F5070000
(1557396620.291425) can0 008#FFFFFFFF
(1557396620.291486) can0 00B#FFFFFFFF
(1557396620.304275) can0 012#FD070000
(1557396620.304644) can0 191#F8070000
(1557396620.304704) can0 190#D5070000
(1557396620.304831) can0 011#D5070000
(1557396620.304921) can0 192#62000000
(1557396620.304982) can0 010#F8070000
(1557396620.311455) can0 008#FFFFFFFF
(1557396620.311520) can0 00B#FFFFFFFF
(1557396620.324289) can0 012#FE070000
(1557396620.324656) can0 191#F8070000
(1557396620.324718) can0 190#D5070000
(1557396620.324844) can0 011#D5070000
(1557396620.324905) can0 192#62000000
(1557396620.325021) can0 010#F8070000
(1557396620.331457) can0 008#FFFFFFFF
(1557396620.331531) can0 00B#FFFFFFFF
(1557396620.344289) can0 012#FF070000
(1557396620.344655) can0 191#F8070000
(1557396620.344717) can0 190#D5070000
(1557396620.344844) can0 011#D5070000
(1557396620.344908) can0 192#63000000
(1557396620.345025) can0 00D#77010000
(1557396620.345086) can0 010#F5070000
(1557396620.351477) can0 008#FFFFFFFF
(1557396620.351610) can0 00B#FFFFFFFF
(1557396620.364278) can0 012#FE070000
(1557396620.364646) can0 191#F8070000
(1557396620.364708) can0 190#D5070000
(1557396620.364835) can0 011#D5070000
(1557396620.364922) can0 192#64000000
(1557396620.364983) can0 010#F8070000
(1557396620.371484) can0 008#FFFFFFFF
(1557396620.371545) can0 00B#FFFFFFFF
(1557396620.384290) can0 012#FB070000
(1557396620.384657) can0 191#F8070000
(1557396620.384718) can0 190#D5070000
(1557396620.384844) can0 011#D5070000
(1557396620.384910) can0 064#FFEFCDAB
(1557396620.385040) can0 192#62000000
(1557396620.385104) can0 010#F8070000
(1557396620.391505) can0 008#FFFFFFFF
(1557396620.391566) can0 00B#FFFFFFFF
(1557396620.392612) can0 048#00000000
(1557396620.392672) can0 025#14010000
(1557396620.404280) can0 012#F9070000
(1557396620.404647) can0 191#F8070000
(1557396620.404708) can0 190#D5070000
(1557396620.404835) can0 011#D5070000
(1557396620.404930) can0 192#62000000
(1557396620.404992) can0 010#F8070000
(1557396620.411515) can0 008#FFFFFFFF
(1557396620.411576) can0 00B#FFFFFFFF
(1557396620.413091) can0 048#00000000
(1557396620.413152) can0 025#FC000000
(1557396620.424280) can0 012#FB070000
(1557396620.424648) can0 191#F8070000
(1557396620.424710) can0 190#D7070000
(1557396620.424838) can0 011#D5070000
(1557396620.424936) can0 192#63000000
(1557396620.424999) can0 010#F8070000
(1557396620.430295) can0 048#00000000
(1557396620.430355) can0 025#14010000
(1557396620.431519) can0 008#FFFFFFFF
(1557396620.431580) can0 00B#FFFFFFFF
(1557396620.435218) can0 048#00000000
(1557396620.435345) can0 025#14010000
(1557396620.440334) can0 048#00000000
(1557396620.440463) can0 025#14010000
(1557396620.444282) can0 012#FD070000
(1557396620.444649) can0 191#F8070000
(1557396620.444711) can0 190#D5070000
(1557396620.444847) can0 011#D5070000
(1557396620.444908) can0 192#63000000
(1557396620.444968) can0 010#F8070000
(1557396620.451539) can0 008#FFFFFFFF
(1557396620.451605) can0 00B#FFFFFFFF
(1557396620.453808) can0 048#00000000
(1557396620.457986) can0 025#14010000
(1557396620.464282) can0 012#FE070000
(1557396620.464650) can0 191#F8070000
(1557396620.464713) can0 190#D5070000
(1557396620.464849) can0 011#D5070000
(1557396620.464911) can0 192#63000000
(1557396620.464970) can0 010#F8070000
(1557396620.471540) can0 008#FFFFFFFF
(1557396620.471601) can0 00B#FFFFFFFF
(1557396620.484284) can0 012#FB070000
(1557396620.484651) can0 191#F8070000
(1557396620.484712) can0 190#D5070000
(1557396620.484848) can0 011#D5070000
(1557396620.484910) can0 192#62000000
(1557396620.484969) can0 010#F8070000
(1557396620.491559) can0 008#FFFFFFFF
(1557396620.491622) can0 00B#FFFFFFFF
(1557396620.504283) can0 012#FF070000
(1557396620.504652) can0 191#F8070000
(1557396620.504714) can0 190#D5070000
(1557396620.504851) can0 011#D7070000
(1557396620.504912) can0 192#63000000
(1557396620.504971) can0 010#F5070000
(1557396620.511583) can0 008#FFFFFFFF
(1557396620.511645) can0 00B#FFFFFFFF
(1557396620.524288) can0 012#FA070000
(1557396620.524655) can0 191#F8070000
(1557396620.524717) can0 190#D5070000
(1557396620.524852) can0 011#D5070000
(1557396620.524913) can0 192#61000000
(1557396620.524972) can0 010#F8070000
(1557396620.531593) can0 008#FFFFFFFF
(1557396620.531654) can0 00B#FFFFFFFF
(1557396620.544297) can0 012#F7070000
(1557396620.544666) can0 191#F8070000
(1557396620.544727) can0 190#D5070000
(1557396620.544855) can0 011#D5070000
(1557396620.544919) can0 192#62000000
(1557396620.545039) can0 00D#75010000
(1557396620.545102) can0 010#F8070000
(1557396620.546292) can0 020#01000000
(1557396620.551596) can0 008#FFFFFFFF
(1557396620.551728) can0 00B#FFFFFFFF
(1557396620.564287) can0 012#FA070000
(1557396620.564655) can0 191#F8070000
(1557396620.564717) can0 190#D5070000
(1557396620.564843) can0 011#D5070000
(1557396620.564903) can0 192#63000000
(1557396620.565020) can0 010#F8070000
(1557396620.571623) can0 008#FFFFFFFF
(1557396620.571684) can0 00B#FFFFFFFF
(1557396620.584301) can0 012#FB070000
(1557396620.584669) can0 191#F8070000
(1557396620.584730) can0 190#D5070000
(1557396620.584857) can0 011#D5070000
(1557396620.584946) can0 192#62000000
(1557396620.585010) can0 010#F5070000
(1557396620.591630) can0 008#FFFFFFFF
(1557396620.591691) can0 00B#FFFFFFFF
(1557396620.604290) can0 012#FA070000
(1557396620.611652) can0 008#FFFFFFFF
(1557396620.611713) can0 00B#FFFFFFFF
(1557396620.615308) can0 191#F8070000
(1557396620.615370) can0 190#D5070000
(1557396620.615509) can0 011#D5070000
(1557396620.615570) can0 192#61000000
(1557396620.615640) can0 010#F8070000
(1557396620.624280) can0 012#F8070000
(1557396620.624657) can0 191#F8070000
(1557396620.624714) can0 190#D7070000
(1557396620.624822) can0 011#D5070000
(1557396620.624879) can0 192#63000000
(1557396620.625000) can0 010#F8070000
(1557396620.631660) can0 008#FFFFFFFF
(1557396620.631717) can0 00B#FFFFFFFF
(1557396620.644282) can0 012#FD070000
(1557396620.644660) can0 191#F8070000
(1557396620.644721) can0 190#D5070000
(1557396620.644847) can0 011#D5070000
(1557396620.644909) can0 192#63000000
(1557396620.645025) can0 010#F8070000
(1557396620.651667) can0 008#FFFFFFFF
(1557396620.651732) can0 00B#FFFFFFFF
(1557396620.664281) can0 012#FB070000
(1557396620.664659) can0 191#F8070000
(1557396620.664720) can0 190#D5070000
(1557396620.664846) can0 011#D5070000
(1557396620.664909) can0 192#62000000
(1557396620.665038) can0 010#F8070000
(1557396620.671693) can0 008#FFFFFFFF
(1557396620.671755) can0 00B#FFFFFFFF
(1557396620.684282) can0 012#FE070000
(1557396620.684660) can0 191#F8070000
(1557396620.684721) can0 190#D5070000
(1557396620.684848) can0 011#D5070000
(1557396620.684909) can0 192#62000000
(1557396620.685055) can0 010#F8070000
(1557396620.691696) can0 008#FFFFFFFF
(1557396620.691757) can0 00B#FFFFFFFF
(1557396620.704282) can0 012#FE070000
(1557396620.704661) can0 191#F8070000
(1557396620.704722) can0 190#D5070000
(1557396620.704859) can0 011#D5070000
(1557396620.704923) can0 192#62000000
(1557396620.704986) can0 010#F8070000
(1557396620.711718) can0 008#FFFFFFFF
(1557396620.711778) can0 00B#FFFFFFFF
(1557396620.724286) can0 012#FE070000
(1557396620.724664) can0 191#F8070000
(1557396620.724724) can0 190#D5070000
(1557396620.724862) can0 011#D5070000
(1557396620.724923) can0 192#62000000
(1557396620.724983) can0 010#F8070000
(1557396620.731719) can0 008#FFFFFFFF
(1557396620.731780) can0 00B#FFFFFFFF
(1557396620.744298) can0 012#FD070000
(1557396620.744676) can0 191#F8070000
(1557396620.744737) can0 190#D5070000
(1557396620.744876) can0 011#D5070000
(1557396620.744937) can0 192#63000000
(1557396620.744998) can0 00D#71010000
(1557396620.745116) can0 010#F8070000
(1557396620.750822) can0 048#00000000
(1557396620.750884) can0 025#14010000
(1557396620.751744) can0 008#FFFFFFFF
(1557396620.751805) can0 00B#FFFFFFFF
(1557396620.764287) can0 012#FC070000
(1557396620.764666) can0 191#F8070000
(1557396620.764727) can0 190#D5070000
(1557396620.764866) can0 011#D5070000
(1557396620.764927) can0 192#62000000
(1557396620.764987) can0 010#F8070000
(1557396620.771300) can0 048#00000000
(1557396620.771362) can0 025#FC000000
(1557396620.771744) can0 008#FFFFFFFF
(1557396620.771804) can0 00B#FFFFFFFF
(1557396620.784300) can0 012#FB070000
(1557396620.784679) can0 191#F8070000
(1557396620.784740) can0 190#D5070000
(1557396620.784875) can0 011#D5070000
(1557396620.784936) can0 064#FFEFCDAB
(1557396620.784998) can0 192#62000000
(1557396620.785106) can0 010#F8070000
(1557396620.791759) can0 008#FFFFFFFF
(1557396620.791820) can0 00B#FFFFFFFF
(1557396620.792927) can0 048#00000000
(1557396620.792990) can0 025#14010000
(1557396620.798034) can0 048#00000000
(1557396620.798095) can0 025#14010000
(1557396620.802644) can0 048#00000000
(1557396620.802705) can0 025#14010000
(1557396620.804287) can0 012#FF070000
(1557396620.804666) can0 191#F8070000
(1557396620.804727) can0 190#D5070000
(1557396620.804857) can0 011#D5070000
(1557396620.804917) can0 192#64000000
(1557396620.805053) can0 010#F5070000
(1557396620.806738) can0 048#00000000
(1557396620.806836) can0 025#14010000
(1557396620.811783) can0 008#FFFFFFFF
(1557396620.811840) can0 00B#FFFFFFFF
(1557396620.824291) can0 012#FB070000
(1557396620.824669) can0 191#F8070000
(1557396620.824731) can0 190#D5070000
(1557396620.824852) can0 011#D5070000
(1557396620.824916) can0 192#63000000
(1557396620.825028) can0 010#F8070000
(1557396620.831782) can0 008#FFFFFFFF
(1557396620.831843) can0 00B#FFFFFFFF
(1557396620.844291) can0 012#01080000
(1557396620.844669) can0 191#F8070000
(1557396620.844730) can0 190#D5070000
(1557396620.844850) can0 011#D5070000
(1557396620.844910) can0 192#63000000
(1557396620.845019) can0 010#F8070000
(1557396620.851806) can0 008#FFFFFFFF
(1557396620.851869) can0 00B#FFFFFFFF
(1557396620.864293) can0 012#FE070000
(1557396620.864670) can0 191#F8070000
(1557396620.864731) can0 190#D5070000
(1557396620.864851) can0 011#D5070000
(1557396620.864915) can0 192#62000000
(1557396620.865024) can0 010#F5070000
(1557396620.871818) can0 008#FFFFFFFF
(1557396620.871879) can0 00B#FFFFFFFF
(1557396620.884294) can0 012#FD070000
(1557396620.884671) can0 191#F8070000
(1557396620.884732) can0 190#D5070000
(1557396620.884851) can0 011#D5070000
(1557396620.884912) can0 192#62000000
(1557396620.885018) can0 010#F8070000
(1557396620.891830) can0 008#FFFFFFFF
(1557396620.891893) can0 00B#FFFFFFFF
(1557396620.904294) can0 012#FF070000
(1557396620.904673) can0 191#F8070000
(1557396620.904734) can0 190#D5070000
(1557396620.904853) can0 011#D5070000
(1557396620.904917) can0 192#63000000
(1557396620.905037) can0 010#F8070000
(1557396620.911838) can0 008#FFFFFFFF
(1557396620.911899) can0 00B#FFFFFFFF
(1557396620.924294) can0 012#FC070000
(1557396620.924675) can0 191#F8070000
(1557396620.924737) can0 190#D5070000
(1557396620.924855) can0 011#D5070000
(1557396620.924915) can0 192#63000000
(1557396620.925033) can0 010#F8070000
(1557396620.931867) can0 008#FFFFFFFF
(1557396620.931928) can0 00B#FFFFFFFF
(1557396620.944309) can0 012#F9070000
(1557396620.944687) can0 191#F8070000
(1557396620.944748) can0 190#D5070000
(1557396620.944872) can0 011#D7070000
(1557396620.944933) can0 192#63000000
(1557396620.945053) can0 00D#77010000
(1557396620.945116) can0 010#F5070000
(1557396620.951874) can0 008#FFFFFFFF
(1557396620.951935) can0 00B#FFFFFFFF
(1557396620.964298) can0 012#FF070000
(1557396620.964676) can0 191#F8070000
(1557396620.964738) can0 190#D7070000
(1557396620.964855) can0 011#D5070000
(1557396620.964916) can0 192#63000000
(1557396620.965034) can0 010#F5070000
(1557396620.971881) can0 008#FFFFFFFF
(1557396620.971942) can0 00B#FFFFFFFF
(1557396620.984298) can0 012#FD070000
(1557396620.984677) can0 191#F8070000
(1557396620.984740) can0 190#D5070000
(1557396620.984871) can0 011#D5070000
(1557396620.984933) can0 192#64000000
(1557396620.984995) can0 010#F5070000
(1557396620.991884) can0 008#FFFFFFFF
(1557396620.991945) can0 00B#FFFFFFFF
(1557396621.004299) can0 012#FA070000
(1557396621.004677) can0 191#F8070000
(1557396621.004739) can0 190#D5070000
(1557396621.004869) can0 011#D5070000
(1557396621.004930) can0 192#63000000
(1557396621.005039) can0 010#F8070000
(1557396621.011908) can0 008#FFFFFFFF
(1557396621.011969) can0 00B#FFFFFFFF
(1557396621.024300) can0 012#FA070000
(1557396621.024679) can0 191#F8070000
(1557396621.024749) can0 190#D5070000
(1557396621.024881) can0 011#D5070000
(1557396621.024941) can0 192#63000000
(1557396621.025002) can0 010#F8070000
(1557396621.031923) can0 008#FFFFFFFF
(1557396621.031985) can0 00B#FFFFFFFF
(1557396621.044304) can0 012#FD070000
(1557396621.044680) can0 191#F8070000
(1557396621.044742) can0 190#D7070000
(1557396621.044871) can0 011#D7070000
(1557396621.044931) can0 192#61000000
(1557396621.045041) can0 010#F5070000
(1557396621.051939) can0 008#FFFFFFFF
(1557396621.052000) can0 00B#FFFFFFFF
(1557396621.064304) can0 012#FA070000
(1557396621.064682) can0 191#F8070000
(1557396621.064743) can0 190#D5070000
(1557396621.064875) can0 011#D5070000
(1557396621.064935) can0 192#63000000
(1557396621.065047) can0 010#F5070000
(1557396621.071945) can0 008#FFFFFFFF
(1557396621.072052) can0 00B#FFFFFFFF
(1557396621.084319) can0 012#FD070000
(1557396621.084696) can0 191#F8070000
(1557396621.084762) can0 190#D5070000
(1557396621.084862) can0 011#D5070000
(1557396621.084965) can0 192#62000000
(1557396621.085023) can0 010#F8070000
(1557396621.091968) can0 008#FFFFFFFF
(1557396621.092052) can0 00B#FFFFFFFF
(1557396621.099692) can0 048#00000000
(1557396621.099751) can0 025#14010000
(1557396621.104304) can0 012#FE070000
(1557396621.104683) can0 191#F8070000
(1557396621.104746) can0 190#D5070000
(1557396621.104865) can0 011#D5070000
(1557396621.104930) can0 192#62000000
(1557396621.105042) can0 010#F5070000
(1557396621.111972) can0 008#FFFFFFFF
(1557396621.112034) can0 00B#FFFFFFFF
(1557396621.120168) can0 048#00000000
(1557396621.120229) can0 025#FC000000
(1557396621.124304) can0 012#FC070000
(1557396621.124685) can0 191#F8070000
(1557396621.124747) can0 190#D7070000
(1557396621.124867) can0 011#D7070000
(1557396621.124927) can0 192#63000000
(1557396621.125043) can0 010#F8070000
(1557396621.131978) can0 008#FFFFFFFF
(1557396621.132039) can0 00B#FFFFFFFF
(1557396621.136410) can0 048#00000000
(1557396621.136498) can0 025#14010000
(1557396621.141270) can0 048#00000000
(1557396621.141334) can0 025#14010000
(1557396621.144317) can0 012#FD070000
(1557396621.144694) can0 191#F8070000
(1557396621.144779) can0 190#D7070000
(1557396621.144845) can0 011#D5070000
(1557396621.144963) can0 192#63000000
(1557396621.145027) can0 00D#73010000
(1557396621.145141) can0 010#F8070000
(1557396621.146387) can0 048#00000000
(1557396621.146450) can0 025#14010000
(1557396621.151507) can0 048#00000000
(1557396621.151563) can0 025#14010000
(1557396621.151999) can0 008#FFFFFFFF
(1557396621.152061) can0 00B#FFFFFFFF
(1557396621.155092) can0 048#00000000
(1557396621.155153) can0 025#14010000
(1557396621.164306) can0 012#04080000
(1557396621.164685) can0 191#F8070000
(1557396621.164747) can0 190#D7070000
(1557396621.164867) can0 011#D7070000
(1557396621.164928) can0 192#62000000
(1557396621.165039) can0 010#F5070000
(1557396621.172008) can0 008#FFFFFFFF
(1557396621.172127) can0 00B#FFFFFFFF
(1557396621.184322) can0 012#00080000
(1557396621.184701) can0 191#F8070000
(1557396621.184790) can0 190#D5070000
(1557396621.184852) can0 011#D5070000
(1557396621.185000) can0 064#FFEFCDAB
(1557396621.185061) can0 192#62000000
(1557396621.185126) can0 010#F8070000
(1557396621.192017) can0 008#FFFFFFFF
(1557396621.192077) can0 00B#FFFFFFFF
(1557396621.204310) can0 012#FE070000
(1557396621.204689) can0 191#F8070000
(1557396621.204750) can0 190#D7070000
(1557396621.204871) can0 011#D5070000
(1557396621.204932) can0 192#62000000
(1557396621.205050) can0 010#F5070000
(1557396621.212042) can0 008#FFFFFFFF
(1557396621.212104) can0 00B#FFFFFFFF
(1557396621.224312) can0 012#FD070000
(1557396621.224694) can0 191#F8070000
(1557396621.224774) can0 190#D5070000
(1557396621.224834) can0 011#D5070000
(1557396621.224945) can0 192#62000000
(1557396621.225009) can0 010#F8070000
(1557396621.232068) can0 008#FFFFFFFF
(1557396621.232155) can0 00B#FFFFFFFF
(1557396621.244314) can0 012#FC070000
(1557396621.244691) can0 191#F8070000
(1557396621.244752) can0 190#D5070000
(1557396621.244853) can0 011#D5070000
(1557396621.244939) can0 192#62000000
(1557396621.245024) can0 010#F8070000
(1557396621.252073) can0 008#FFFFFFFF
(1557396621.252135) can0 00B#FFFFFFFF
(1557396621.264316) can0 012#FE070000
(1557396621.264693) can0 191#F8070000
(1557396621.264756) can0 190#D5070000
(1557396621.264870) can0 011#D7070000
(1557396621.264923) can0 192#62000000
(1557396621.265034) can0 010#F5070000
(1557396621.272102) can0 008#FFFFFFFF
(1557396621.272162) can0 00B#FFFFFFFF
(1557396621.284316) can0 012#FE070000
(1557396621.284695) can0 191#F8070000
(1557396621.284757) can0 190#D5070000
(1557396621.284865) can0 011#D5070000
(1557396621.284918) can0 192#62000000
(1557396621.285036) can0 010#F8070000
(1557396621.292104) can0 008#FFFFFFFF
(1557396621.292164) can0 00B#FFFFFFFF
(1557396621.304319) can0 012#FD070000
(1557396621.304696) can0 191#F8070000
(1557396621.304757) can0 190#D5070000
(1557396621.304870) can0 011#D7070000
(1557396621.304923) can0 192#63000000
(1557396621.305048) can0 010#F5070000
(1557396621.312111) can0 008#FFFFFFFF
(1557396621.312171) can0 00B#FFFFFFFF
(1557396621.324318) can0 012#FB070000
(1557396621.324699) can0 191#F8070000
(1557396621.324760) can0 190#D7070000
(1557396621.324880) can0 011#D7070000
(1557396621.324935) can0 192#61000000
(1557396621.325037) can0 010#F5070000
(1557396621.332134) can0 008#FFFFFFFF
(1557396621.332194) can0 00B#FFFFFFFF
(1557396621.344333) can0 012#FC070000
(1557396621.344710) can0 191#F8070000
(1557396621.344770) can0 190#D7070000
(1557396621.344878) can0 011#D5070000
(1557396621.344931) can0 192#62000000
(1557396621.345043) can0 00D#75010000
(1557396621.345132) can0 010#F5070000
(1557396621.352134) can0 008#FFFFFFFF
(1557396621.352195) can0 00B#FFFFFFFF
(1557396621.364321) can0 012#FE070000
(1557396621.364698) can0 191#F8070000
(1557396621.364759) can0 190#D5070000
(1557396621.364867) can0 011#D5070000
(1557396621.364920) can0 192#63000000
(1557396621.365037) can0 010#F8070000
(1557396621.372139) can0 008#FFFFFFFF
(1557396621.372199) can0 00B#FFFFFFFF
(1557396621.384321) can0 012#FE070000
(1557396621.384698) can0 191#F8070000
(1557396621.384759) can0 190#D5070000
(1557396621.384870) can0 011#D5070000
(1557396621.384923) can0 192#63000000
(1557396621.385043) can0 010#F5070000
(1557396621.392161) can0 008#FFFFFFFF
(1557396621.392222) can0 00B#FFFFFFFF
(1557396621.404321) can0 012#FB070000
(1557396621.404699) can0 191#F8070000
(1557396621.404759) can0 190#D7070000
(1557396621.404867) can0 011#D5070000
(1557396621.404953) can0 192#62000000
(1557396621.405007) can0 010#F5070000
(1557396621.412182) can0 008#FFFFFFFF
(1557396621.412243) can0 00B#FFFFFFFF
(1557396621.424323) can0 012#FE070000
(1557396621.424700) can0 191#F8070000
(1557396621.424760) can0 190#D5070000
(1557396621.424871) can0 011#D5070000
(1557396621.424924) can0 192#62000000
(1557396621.425044) can0 010#F5070000
(1557396621.432190) can0 008#FFFFFFFF
(1557396621.432251) can0 00B#FFFFFFFF
(1557396621.444324) can0 012#00080000
(1557396621.444702) can0 191#F8070000
(1557396621.444762) can0 190#D5070000
(1557396621.444870) can0 011#D5070000
(1557396621.444923) can0 192#63000000
(1557396621.445041) can0 010#F5070000
(1557396621.447959) can0 048#00000000
(1557396621.448022) can0 025#14010000
(1557396621.452192) can0 008#FFFFFFFF
(1557396621.452253) can0 00B#FFFFFFFF
(1557396621.464326) can0 012#F9070000
(1557396621.464703) can0 191#F8070000
(1557396621.464764) can0 190#D5070000
(1557396621.464871) can0 011#D7070000
(1557396621.464959) can0 192#63000000
(1557396621.465012) can0 010#F8070000
(1557396621.468193) can0 048#00000000
(1557396621.468254) can0 025#FC000000
(1557396621.472214) can0 008#FFFFFFFF
(1557396621.472275) can0 00B#FFFFFFFF
(1557396621.484329) can0 012#FC070000
(1557396621.484705) can0 191#F8070000
(1557396621.484765) can0 190#D5070000
(1557396621.484874) can0 011#D5070000
(1557396621.484927) can0 192#63000000
(1557396621.485046) can0 010#F5070000
(1557396621.487761) can0 048#00000000
(1557396621.487822) can0 025#14010000
(1557396621.492238) can0 008#FFFFFFFF
(1557396621.492299) can0 00B#FFFFFFFF
(1557396621.492884) can0 048#00000000
(1557396621.492944) can0 025#14010000
(1557396621.497999) can0 048#00000000
(1557396621.498062) can0 025#14010000
(1557396621.504326) can0 012#FC070000
(1557396621.504705) can0 191#F8070000
(1557396621.504765) can0 190#D5070000
(1557396621.504873) can0 011#D5070000
(1557396621.504927) can0 192#63000000
(1557396621.505047) can0 010#F8070000
(1557396621.512256) can0 008#FFFFFFFF
(1557396621.512317) can0 00B#FFFFFFFF
(1557396621.524330) can0 012#FC070000
(1557396621.524708) can0 191#F8070000
(1557396621.524768) can0 190#D5070000
(1557396621.524878) can0 011#D5070000
(1557396621.524931) can0 192#62000000
(1557396621.525049) can0 010#F5070000
(1557396621.532264) can0 008#FFFFFFFF
(1557396621.532324) can0 00B#FFFFFFFF
(1557396621.544342) can0 012#01080000
(1557396621.544721) can0 191#F8070000
(1557396621.544782) can0 190#D5070000
(1557396621.544893) can0 011#D5070000
(1557396621.544946) can0 192#63000000
(1557396621.545053) can0 00D#75010000
(1557396621.545145) can0 010#F8070000
(1557396621.546317) can0 020#01000000
(1557396621.552296) can0 008#FFFFFFFF
(1557396621.552357) can0 00B#FFFFFFFF
(1557396621.564333) can0 012#FD070000
(1557396621.564712) can0 191#F8070000
(1557396621.564771) can0 190#D5070000
(1557396621.564881) can0 011#D5070000
(1557396621.564934) can0 192#63000000
(1557396621.565051) can0 010#F8070000
(1557396621.572318) can0 008#FFFFFFFF
(1557396621.572379) can0 00B#FFFFFFFF
(1557396621.584357) can0 012#FE070000
(1557396621.584736) can0 191#F8070000
(1557396621.584796) can0 190#D7070000
(1557396621.584915) can0 011#D5070000
(1557396621.584968) can0 064#FFEFCDAB
(1557396621.585073) can0 192#62000000
(1557396621.585129) can0 010#F8070000
(1557396621.592325) can0 008#FFFFFFFF
(1557396621.592387) can0 00B#FFFFFFFF
(1557396621.604333) can0 012#FB070000
(1557396621.612327) can0 008#FFFFFFFF
(1557396621.612388) can0 00B#FFFFFFFF
(1557396621.615365) can0 191#F8070000
(1557396621.615425) can0 190#D5070000
(1557396621.615533) can0 011#D5070000
(1557396621.615586) can0 192#64000000
(1557396621.615703) can0 010#F8070000
(1557396621.624347) can0 012#FC070000
(1557396621.624712) can0 191#F8070000
(1557396621.624771) can0 190#D5070000
(1557396621.624880) can0 011#D5070000
(1557396621.624966) can0 192#63000000
(1557396621.625021) can0 010#F8070000
(1557396621.632335) can0 008#FFFFFFFF
(1557396621.632395) can0 00B#FFFFFFFF
(1557396621.644349) can0 012#FD070000
(1557396621.644715) can0 191#F8070000
(1557396621.644774) can0 190#D5070000
(1557396621.644882) can0 011#D5070000
(1557396621.644969) can0 192#62000000
(1557396621.645054) can0 010#F8070000
(1557396621.652355) can0 008#FFFFFFFF
(1557396621.652415) can0 00B#FFFFFFFF
(1557396621.664362) can0 012#FE070000
(1557396621.664727) can0 191#F8070000
(1557396621.664787) can0 190#D5070000
(1557396621.664919) can0 011#D7070000
(1557396621.664972) can0 192#63000000
(1557396621.665060) can0 010#F5070000
(1557396621.672382) can0 008#FFFFFFFF
(1557396621.672442) can0 00B#FFFFFFFF
(1557396621.684349) can0 012#FC070000
(1557396621.684715) can0 191#F8070000
(1557396621.684774) can0 190#D5070000
(1557396621.684883) can0 011#D5070000
(1557396621.684969) can0 192#62000000
(1557396621.685054) can0 010#F8070000
(1557396621.692389) can0 008#FFFFFFFF
(1557396621.692449) can0 00B#FFFFFFFF
(1557396621.704351) can0 012#FF070000
(1557396621.704717) can0 191#F8070000
(1557396621.704777) can0 190#D5070000
(1557396621.704889) can0 011#D5070000
(1557396621.704942) can0 192#62000000
(1557396621.705054) can0 010#F8070000
(1557396621.712409) can0 008#FFFFFFFF
(1557396621.712470) can0 00B#FFFFFFFF
(1557396621.724351) can0 012#FC070000
(1557396621.724719) can0 191#F8070000
(1557396621.724778) can0 190#D7070000
(1557396621.724886) can0 011#D7070000
(1557396621.724973) can0 192#63000000
(1557396621.725058) can0 010#F8070000
(1557396621.732420) can0 008#FFFFFFFF
(1557396621.732482) can0 00B#FFFFFFFF
(1557396621.744367) can0 012#FC070000
(1557396621.744732) can0 191#F8070000
(1557396621.744792) can0 190#D5070000
(1557396621.744917) can0 011#D5070000
(1557396621.744971) can0 192#63000000
(1557396621.745061) can0 00D#74010000
(1557396621.745151) can0 010#F8070000
(1557396621.752422) can0 008#FFFFFFFF
(1557396621.752484) can0 00B#FFFFFFFF
(1557396621.764356) can0 012#FD070000
(1557396621.764720) can0 191#F8070000
(1557396621.764780) can0 190#D5070000
(1557396621.764890) can0 011#D5070000
(1557396621.764943) can0 192#62000000
(1557396621.765062) can0 010#F8070000
(1557396621.772432) can0 008#FFFFFFFF
(1557396621.772493) can0 00B#FFFFFFFF
(1557396621.784356) can0 012#FF070000
(1557396621.784721) can0 191#F8070000
(1557396621.784780) can0 190#D5070000
(1557396621.784894) can0 011#D5070000
(1557396621.784947) can0 192#63000000
(1557396621.785060) can0 010#F5070000
(1557396621.792449) can0 008#FFFFFFFF
(1557396621.792511) can0 00B#FFFFFFFF
(1557396621.804358) can0 012#FC070000
(1557396621.804722) can0 191#F8070000
(1557396621.804784) can0 190#D5070000
(1557396621.804892) can0 011#D5070000
(1557396621.804945) can0 192#63000000
(1557396621.805062) can0 010#F5070000
(1557396621.805149) can0 048#00000000
(1557396621.805235) can0 025#14010000
(1557396621.812468) can0 008#FFFFFFFF
(1557396621.812528) can0 00B#FFFFFFFF
(1557396621.824360) can0 012#FD070000
(1557396621.824725) can0 191#F8070000
(1557396621.824785) can0 190#D5070000
(1557396621.824897) can0 011#D5070000
(1557396621.824950) can0 192#64000000
(1557396621.825061) can0 010#F8070000
(1557396621.825478) can0 048#00000000
(1557396621.825538) can0 025#FC000000
(1557396621.832475) can0 008#FFFFFFFF
(1557396621.832535) can0 00B#FFFFFFFF
(1557396621.841533) can0 048#00000000
(1557396621.841594) can0 025#14010000
(1557396621.844358) can0 012#FC070000
(1557396621.844725) can0 191#F8070000
(1557396621.844784) can0 190#D5070000
(1557396621.844893) can0 011#D5070000
(1557396621.844946) can0 192#63000000
(1557396621.845063) can0 010#F5070000
(1557396621.846580) can0 048#00000000
(1557396621.846641) can0 025#14010000
(1557396621.851700) can0 048#00000000
(1557396621.851762) can0 025#14010000
(1557396621.852496) can0 008#FFFFFFFF
(1557396621.852556) can0 00B#FFFFFFFF
(1557396621.856310) can0 048#00000000
(1557396621.856371) can0 025#14010000
(1557396621.860917) can0 048#00000000
(1557396621.860976) can0 025#14010000
(1557396621.864359) can0 012#FF070000
(1557396621.864515) can0 048#00000000
(1557396621.864574) can0 025#14010000
(1557396621.864737) can0 191#F8070000
(1557396621.864796) can0 190#D5070000
(1557396621.864897) can0 011#D5070000
(1557396621.864951) can0 192#63000000
(1557396621.865062) can0 010#F8070000
(1557396621.872502) can0 008#FFFFFFFF
(1557396621.872562) can0 00B#FFFFFFFF
(1557396621.884362) can0 012#FF070000
(1557396621.884727) can0 191#F8070000
(1557396621.884786) can0 190#D5070000
(1557396621.884895) can0 011#D5070000
(1557396621.884948) can0 192#64000000
(1557396621.885065) can0 010#F8070000
(1557396621.892508) can0 008#FFFFFFFF
(1557396621.892569) can0 00B#FFFFFFFF
(1557396621.904364) can0 012#FC070000
(1557396621.904729) can0 191#F8070000
(1557396621.904788) can0 190#D5070000
(1557396621.904913) can0 011#D5070000
(1557396621.904966) can0 192#63000000
(1557396621.905063) can0 010#F8070000
(1557396621.912532) can0 008#FFFFFFFF
(1557396621.912592) can0 00B#FFFFFFFF
(1557396621.924364) can0 012#FD070000
(1557396621.924731) can0 191#F8070000
(1557396621.924790) can0 190#D7070000
(1557396621.924906) can0 011#D5070000
(1557396621.924959) can0 192#62000000
(1557396621.925067) can0 010#F8070000
(1557396621.932526) can0 008#FFFFFFFF
(1557396621.932586) can0 00B#FFFFFFFF
(1557396621.944377) can0 012#FE070000
(1557396621.944743) can0 191#F8070000
(1557396621.944803) can0 190#D5070000
(1557396621.944916) can0 011#D5070000
(1557396621.944969) can0 192#62000000
(1557396621.945081) can0 00D#74010000
(1557396621.945139) can0 010#F5070000
(1557396621.952551) can0 008#FFFFFFFF
(1557396621.952613) can0 00B#FFFFFFFF
(1557396621.964368) can0 012#FF070000
(1557396621.964733) can0 191#F8070000
(1557396621.964793) can0 190#D5070000
(1557396621.964902) can0 011#D7070000
(1557396621.964956) can0 192#62000000
(1557396621.965073) can0 010#F8070000
(1557396621.972550) can0 008#FFFFFFFF
(1557396621.972612) can0 00B#FFFFFFFF
(1557396621.984380) can0 012#FB070000
(1557396621.984746) can0 191#F8070000
(1557396621.984806) can0 190#D5070000
(1557396621.984919) can0 011#D5070000
(1557396621.984972) can0 064#FFEFCDAB
(1557396621.985084) can0 192#63000000
(1557396621.985142) can0 010#F8070000
(1557396621.992558) can0 008#FFFFFFFF
(1557396621.992619) can0 00B#FFFFFFFF
(1557396622.004369) can0 012#FD070000
(1557396622.004733) can0 191#F8070000
(1557396622.004793) can0 190#D5070000
(1557396622.004902) can0 011#D5070000
(1557396622.004956) can0 192#64000000
(1557396622.005075) can0 010#F5070000
(1557396622.012577) can0 008#FFFFFFFF
(1557396622.012639) can0 00B#FFFFFFFF
(1557396622.024369) can0 012#FF070000
(1557396622.024735) can0 191#F8070000
(1557396622.024795) can0 190#D5070000
(1557396622.024913) can0 011#D5070000
(1557396622.024966) can0 192#63000000
(1557396622.025070) can0 010#F8070000
(1557396622.032584) can0 008#FFFFFFFF
(1557396622.032645) can0 00B#FFFFFFFF
(1557396622.044369) can0 012#FB070000
(1557396622.044736) can0 191#F8070000
(1557396622.044796) can0 190#D5070000
(1557396622.044906) can0 011#D5070000
(1557396622.044960) can0 192#63000000
(1557396622.045076) can0 010#F5070000
(1557396622.052608) can0 008#FFFFFFFF
(1557396622.052668) can0 00B#FFFFFFFF
(1557396622.064371) can0 012#FB070000
(1557396622.064739) can0 191#F8070000
(1557396622.064800) can0 190#D5070000
(1557396622.064913) can0 011#D5070000
(1557396622.064966) can0 192#62000000
(1557396622.065077) can0 010#F8070000
(1557396622.072608) can0 008#FFFFFFFF
(1557396622.072669) can0 00B#FFFFFFFF
(1557396622.084385) can0 012#FF070000
(1557396622.084752) can0 191#F8070000
(1557396622.084812) can0 190#D5070000
(1557396622.084921) can0 011#D5070000
(1557396622.084974) can0 192#62000000
(1557396622.085091) can0 010#F5070000
(1557396622.092619) can0 008#FFFFFFFF
(1557396622.092680) can0 00B#FFFFFFFF
(1557396622.104372) can0 012#FB070000
(1557396622.104741) can0 191#F8070000
(1557396622.104801) can0 190#D5070000
(1557396622.104914) can0 011#D7070000
(1557396622.104967) can0 192#63000000
(1557396622.105076) can0 010#F5070000
(1557396622.112637) can0 008#FFFFFFFF
(1557396622.112698) can0 00B#FFFFFFFF
(1557396622.124373) can0 012#FC070000
(1557396622.124743) can0 191#F8070000
(1557396622.124803) can0 190#D7070000
(1557396622.124912) can0 011#D7070000
(1557396622.124965) can0 192#63000000
(1557396622.125082) can0 010#F8070000
(1557396622.132643) can0 008#FFFFFFFF
(1557396622.132704) can0 00B#FFFFFFFF
(1557396622.144389) can0 012#FA070000
(1557396622.144754) can0 191#F8070000
(1557396622.144814) can0 190#D5070000
(1557396622.144926) can0 011#D5070000
(1557396622.144981) can0 192#62000000
(1557396622.145093) can0 00D#75010000
(1557396622.145147) can0 010#F8070000
(1557396622.152670) can0 008#FFFFFFFF
(1557396622.152731) can0 00B#FFFFFFFF
(1557396622.153667) can0 048#00000000
(1557396622.153729) can0 025#14010000
(1557396622.164377) can0 012#F9070000
(1557396622.164742) can0 191#F8070000
(1557396622.164801) can0 190#D5070000
(1557396622.164910) can0 011#D5070000
(1557396622.165003) can0 192#62000000
(1557396622.165056) can0 010#F8070000
(1557396622.172729) can0 008#FFFFFFFF
(1557396622.172831) can0 00B#FFFFFFFF
(1557396622.174144) can0 048#00000000
(1557396622.174206) can0 025#FC000000
(1557396622.184377) can0 012#FC070000
(1557396622.184742) can0 191#F8070000
(1557396622.184801) can0 190#D5070000
(1557396622.184913) can0 011#D5070000
(1557396622.184967) can0 192#62000000
(1557396622.185086) can0 010#F5070000
(1557396622.192687) can0 048#00000000
(1557396622.192749) can0 025#14010000
(1557396622.192896) can0 008#FFFFFFFF
(1557396622.192950) can0 00B#FFFFFFFF
(1557396622.197298) can0 048#00000000
(1557396622.197361) can0 025#14010000
(1557396622.202416) can0 048#00000000
(1557396622.202477) can0 025#14010000
(1557396622.204366) can0 012#FF070000
(1557396622.204732) can0 191#F8070000
(1557396622.204792) can0 190#D5070000
(1557396622.204900) can0 011#D5070000
(1557396622.204955) can0 192#62000000
(1557396622.205071) can0 010#F5070000
(1557396622.207022) can0 048#00000000
(1557396622.207083) can0 025#14010000
(1557396622.210608) can0 048#00000000
(1557396622.210669) can0 025#14010000
(1557396622.212694) can0 008#FFFFFFFF
(1557396622.212755) can0 00B#FFFFFFFF
(1557396622.224367) can0 012#FA070000
(1557396622.224744) can0 191#F8070000
(1557396622.224804) can0 190#D7070000
(1557396622.224916) can0 011#D7070000
(1557396622.224970) can0 192#62000000
(1557396622.225090) can0 010#F5070000
(1557396622.232720) can0 008#FFFFFFFF
(1557396622.232806) can0 00B#FFFFFFFF
(1557396622.244367) can0 012#FA070000
(1557396622.244744) can0 191#F8070000
(1557396622.244804) can0 190#D5070000
(1557396622.244912) can0 011#D5070000
(1557396622.245000) can0 192#62000000
(1557396622.245053) can0 010#F8070000
(1557396622.252728) can0 008#FFFFFFFF
(1557396622.252832) can0 00B#FFFFFFFF
(1557396622.264369) can0 012#FF070000
(1557396622.264746) can0 191#F8070000
(1557396622.264805) can0 190#D5070000
(1557396622.264918) can0 011#D5070000
(1557396622.264971) can0 192#62000000
(1557396622.265085) can0 010#F8070000
(1557396622.272727) can0 008#FFFFFFFF
(1557396622.272821) can0 00B#FFFFFFFF
(1557396622.284369) can0 012#FC070000
(1557396622.284747) can0 191#F8070000
(1557396622.284807) can0 190#D5070000
(1557396622.284915) can0 011#D5070000
(1557396622.285003) can0 192#62000000
(1557396622.285057) can0 010#F8070000
(1557396622.292746) can0 008#FFFFFFFF
(1557396622.292843) can0 00B#FFFFFFFF
(1557396622.304369) can0 012#FA070000
(1557396622.304748) can0 191#F8070000
(1557396622.304808) can0 190#D5070000
(1557396622.304920) can0 011#D5070000
(1557396622.304975) can0 192#63000000
(1557396622.305084) can0 010#F5070000
(1557396622.312803) can0 008#FFFFFFFF
(1557396622.312867) can0 00B#FFFFFFFF
(1557396622.324370) can0 012#FB070000
(1557396622.324754) can0 191#F8070000
(1557396622.324813) can0 190#D5070000
(1557396622.324924) can0 011#D5070000
(1557396622.324979) can0 192#62000000
(1557396622.325095) can0 010#F8070000
(1557396622.332804) can0 008#FFFFFFFF
(1557396622.332865) can0 00B#FFFFFFFF
(1557396622.344386) can0 012#FD070000
(1557396622.344765) can0 191#F8070000
(1557396622.344824) can0 190#D7070000
(1557396622.344926) can0 011#D5070000
(1557396622.345017) can0 192#62000000
(1557396622.345071) can0 00D#77010000
(1557396622.345185) can0 010#F5070000
(1557396622.352819) can0 008#FFFFFFFF
(1557396622.352881) can0 00B#FFFFFFFF
(1557396622.364375) can0 012#FD070000
(1557396622.364755) can0 191#F8070000
(1557396622.364815) can0 190#D5070000
(1557396622.364924) can0 011#D5070000
(1557396622.364978) can0 192#63000000
(1557396622.365094) can0 010#F8070000
(1557396622.372837) can0 008#FFFFFFFF
(1557396622.372901) can0 00B#FFFFFFFF
(1557396622.384387) can0 012#FC070000
(1557396622.384767) can0 191#F8070000
(1557396622.384836) can0 190#D5070000
(1557396622.384936) can0 011#D5070000
(1557396622.385000) can0 064#FFEFCDAB
(1557396622.385117) can0 192#62000000
(1557396622.385175) can0 010#F8070000
(1557396622.392841) can0 008#FFFFFFFF
(1557396622.392912) can0 00B#FFFFFFFF
(1557396622.404377) can0 012#FB070000
(1557396622.404755) can0 191#F8070000
(1557396622.404817) can0 190#D5070000
(1557396622.404926) can0 011#D5070000
(1557396622.404980) can0 192#63000000
(1557396622.405096) can0 010#F8070000
(1557396622.412863) can0 008#FFFFFFFF
(1557396622.412950) can0 00B#FFFFFFFF
(1557396622.424378) can0 012#FB070000
(1557396622.424755) can0 191#F8070000
(1557396622.424815) can0 190#D7070000
(1557396622.424927) can0 011#D7070000
(1557396622.424982) can0 192#63000000
(1557396622.425093) can0 010#F5070000
(1557396622.432836) can0 008#FFFFFFFF
(1557396622.432897) can0 00B#FFFFFFFF
(1557396622.444378) can0 012#FC070000
(1557396622.444756) can0 191#F8070000
(1557396622.444816) can0 190#D5070000
(1557396622.444924) can0 011#D5070000
(1557396622.444978) can0 192#63000000
(1557396622.445095) can0 010#F5070000
(1557396622.452855) can0 008#FFFFFFFF
(1557396622.452916) can0 00B#FFFFFFFF
(1557396622.464380) can0 012#FE070000
(1557396622.464759) can0 191#F8070000
(1557396622.464818) can0 190#D5070000
(1557396622.464930) can0 011#D5070000
(1557396622.464985) can0 192#62000000
(1557396622.465095) can0 010#F8070000
(1557396622.472867) can0 008#FFFFFFFF
(1557396622.472927) can0 00B#FFFFFFFF
(1557396622.484380) can0 012#FE070000
(1557396622.484758) can0 191#F8070000
(1557396622.484817) can0 190#D5070000
(1557396622.484926) can0 011#D5070000
(1557396622.484980) can0 192#64000000
(1557396622.485097) can0 010#F8070000
(1557396622.492873) can0 008#FFFFFFFF
(1557396622.492934) can0 00B#FFFFFFFF
(1557396622.504381) can0 012#FF070000
(1557396622.504759) can0 191#F8070000
(1557396622.504818) can0 190#D5070000
(1557396622.504930) can0 011#D7070000
(1557396622.504985) can0 192#62000000
(1557396622.505104) can0 010#F5070000
(1557396622.512881) can0 008#FFFFFFFF
(1557396622.512962) can0 00B#FFFFFFFF
(1557396622.524257) can0 009#FFFFFFFF
(1557396622.524392) can0 012#FC070000
(1557396622.524763) can0 191#F8070000
(1557396622.524829) can0 190#D7070000
(1557396622.524926) can0 011#D7070000
(1557396622.525029) can0 192#62000000
(1557396622.525087) can0 010#F5070000
(1557396622.532910) can0 008#FFFFFFFF
(1557396622.532981) can0 00B#FFFFFFFF
(1557396622.544395) can0 012#FA070000
(1557396622.544774) can0 191#F8070000
(1557396622.544833) can0 190#D5070000
(1557396622.544943) can0 011#D5070000
(1557396622.545000) can0 192#63000000
(1557396622.545115) can0 00D#75010000
(1557396622.545169) can0 010#F5070000
(1557396622.546354) can0 020#01000000
(1557396622.552930) can0 008#FFFFFFFF
(1557396622.552992) can0 00B#FFFFFFFF
(1557396622.564386) can0 012#FC070000
(1557396622.564764) can0 191#F8070000
(1557396622.564824) can0 190#D5070000
(1557396622.564932) can0 011#D5070000
(1557396622.565019) can0 192#62000000
(1557396622.565072) can0 010#F5070000
(1557396622.572914) can0 008#FFFFFFFF
(1557396622.572975) can0 00B#FFFFFFFF
(1557396622.584425) can0 012#FD070000
(1557396622.584776) can0 191#F8070000
(1557396622.584836) can0 190#D5070000
(1557396622.584940) can0 011#D5070000
(1557396622.585032) can0 192#62000000
(1557396622.585086) can0 010#F5070000
(1557396622.592919) can0 008#FFFFFFFF
(1557396622.592982) can0 00B#FFFFFFFF
(1557396622.604388) can0 012#FD070000
(1557396622.612930) can0 008#FFFFFFFF
(1557396622.612991) can0 00B#FFFFFFFF
(1557396622.615417) can0 191#F8070000
(1557396622.615479) can0 190#D5070000
(1557396622.615580) can0 011#D5070000
(1557396622.615667) can0 192#63000000
(1557396622.615752) can0 010#F8070000
(1557396622.624401) can0 012#FF070000
(1557396622.624767) can0 191#F8070000
(1557396622.624828) can0 190#D5070000
(1557396622.624931) can0 011#D5070000
(1557396622.625020) can0 192#62000000
(1557396622.625107) can0 010#F8070000
(1557396622.632974) can0 008#FFFFFFFF
(1557396622.633043) can0 00B#FFFFFFFF
(1557396622.644448) can0 012#FC070000
(1557396622.644767) can0 191#F8070000
(1557396622.644829) can0 190#D5070000
(1557396622.644938) can0 011#D5070000
(1557396622.644992) can0 192#62000000
(1557396622.645112) can0 010#F5070000
(1557396622.652961) can0 008#FFFFFFFF
(1557396622.653021) can0 00B#FFFFFFFF
(1557396622.664399) can0 012#FC070000
(1557396622.664767) can0 191#F8070000
(1557396622.664829) can0 190#D5070000
(1557396622.664940) can0 011#D5070000
(1557396622.664997) can0 192#62000000
(1557396622.665118) can0 010#F8070000
(1557396622.672991) can0 008#FFFFFFFF
(1557396622.673051) can0 00B#FFFFFFFF
(1557396622.684403) can0 012#FB070000
(1557396622.684769) can0 191#F8070000
(1557396622.684830) can0 190#D7070000
(1557396622.684937) can0 011#D5070000
(1557396622.684991) can0 192#62000000
(1557396622.685110) can0 010#F8070000
(1557396622.692994) can0 008#FFFFFFFF
(1557396622.693055) can0 00B#FFFFFFFF
(1557396622.704404) can0 012#FB070000
(1557396622.704770) can0 191#F8070000
(1557396622.704829) can0 190#D5070000
(1557396622.704940) can0 011#D5070000
(1557396622.704997) can0 192#63000000
(1557396622.705124) can0 010#F8070000
(1557396622.713022) can0 008#FFFFFFFF
(1557396622.713097) can0 00B#FFFFFFFF
(1557396622.724409) can0 012#FD070000
(1557396622.724776) can0 191#F8070000
(1557396622.724833) can0 190#D5070000
(1557396622.724947) can0 011#D5070000
(1557396622.725005) can0 192#62000000
(1557396622.725114) can0 010#F8070000
(1557396622.733010) can0 008#FFFFFFFF
(1557396622.733066) can0 00B#FFFFFFFF
(1557396622.744418) can0 012#FC070000
(1557396622.744786) can0 191#FA070000
(1557396622.744846) can0 190#D5070000
(1557396622.744965) can0 011#D5070000
(1557396622.745028) can0 192#63000000
(1557396622.745097) can0 00D#75010000
(1557396622.745211) can0 010#FA070000
(1557396622.753032) can0 008#FFFFFFFF
(1557396622.753094) can0 00B#FFFFFFFF
(1557396622.764406) can0 012#FA070000
(1557396622.764775) can0 191#F5070000
(1557396622.764836) can0 190#D5070000
(1557396622.764969) can0 011#D5070000
(1557396622.765031) can0 192#64000000
(1557396622.765089) can0 010#F5070000
(1557396622.773028) can0 008#FFFFFFFF
(1557396622.773090) can0 00B#FFFFFFFF
(1557396622.784419) can0 012#FC070000
(1557396622.784787) can0 191#F8070000
(1557396622.784845) can0 190#DD070000
(1557396622.784966) can0 011#DD070000
(1557396622.785028) can0 064#FFEFCDAB
(1557396622.785163) can0 192#63000000
(1557396622.785219) can0 010#F8070000
(1557396622.793039) can0 008#FFFFFFFF
(1557396622.793095) can0 00B#FFFFFFFF
(1557396622.804408) can0 012#00080000
(1557396622.804775) can0 191#F8070000
(1557396622.804832) can0 190#E0070000
(1557396622.804941) can0 011#DF070000
(1557396622.804999) can0 192#63000000
(1557396622.805138) can0 010#F8070000
(1557396622.813058) can0 008#FFFFFFFF
(1557396622.813116) can0 00B#FFFFFFFF
(1557396622.824408) can0 012#03080000
(1557396622.824778) can0 191#F5070000
(1557396622.824839) can0 190#DE070000
(1557396622.824952) can0 011#DE070000
(1557396622.825014) can0 192#62000000
(1557396622.825093) can0 010#F5070000
(1557396622.833084) can0 008#FFFFFFFF
(1557396622.833146) can0 00B#FFFFFFFF
(1557396622.844410) can0 012#FE070000
(1557396622.844778) can0 191#F5070000
(1557396622.844839) can0 190#D5070000
(1557396622.844985) can0 011#D7070000
(1557396622.845046) can0 192#62000000
(1557396622.845106) can0 010#F5070000
(1557396622.853088) can0 008#FFFFFFFF
(1557396622.853149) can0 00B#FFFFFFFF
(1557396622.856200) can0 048#00000000
(1557396622.856261) can0 025#14010000
(1557396622.864411) can0 012#F8070000
(1557396622.864778) can0 191#F8070000
(1557396622.864839) can0 190#DE070000
(1557396622.864965) can0 011#DD070000
(1557396622.865028) can0 192#63000000
(1557396622.865102) can0 010#F5070000
(1557396622.873102) can0 008#FFFFFFFF
(1557396622.873164) can0 00B#FFFFFFFF
(1557396622.876675) can0 048#00000000
(1557396622.876748) can0 025#FC000000
(1557396622.884413) can0 012#F5070000
(1557396622.884780) can0 191#FD070000
(1557396622.884841) can0 190#DE070000
(1557396622.884985) can0 011#DD070000
(1557396622.885046) can0 192#62000000
(1557396622.885107) can0 010#FD070000
(1557396622.892181) can0 048#00000000
(1557396622.892243) can0 025#14010000
(1557396622.893120) can0 008#FFFFFFFF
(1557396622.893181) can0 00B#FFFFFFFF
(1557396622.897266) can0 048#00000000
(1557396622.897328) can0 025#14010000
(1557396622.902387) can0 048#00000000
(1557396622.902447) can0 025#14010000
(1557396622.904402) can0 012#F9070000
(1557396622.904768) can0 191#FD070000
(1557396622.904830) can0 190#D5070000
(1557396622.904972) can0 011#D5070000
(1557396622.905034) can0 192#63000000
(1557396622.905093) can0 010#FA070000
(1557396622.906993) can0 048#00000000
(1557396622.907090) can0 025#14010000
(1557396622.911603) can0 048#00000000
(1557396622.911693) can0 025#14010000
(1557396622.913128) can0 008#FFFFFFFF
(1557396622.913184) can0 00B#FFFFFFFF
(1557396622.924402) can0 012#FB070000
(1557396622.924782) can0 191#F5070000
(1557396622.924843) can0 190#D5070000
(1557396622.924985) can0 011#D5070000
(1557396622.925047) can0 192#62000000
(1557396622.925107) can0 010#F5070000
(1557396622.933145) can0 008#FFFFFFFF
(1557396622.933210) can0 00B#FFFFFFFF
(1557396622.944416) can0 012#00080000
(1557396622.944795) can0 191#F1070000
(1557396622.944854) can0 190#D5070000
(1557396622.944984) can0 011#D5070000
(1557396622.945045) can0 192#63000000
(1557396622.945120) can0 00D#76010000
(1557396622.945238) can0 010#F1070000
(1557396622.953169) can0 008#FFFFFFFF
(1557396622.953231) can0 00B#FFFFFFFF
(1557396622.964406) can0 012#FD070000
(1557396622.964783) can0 191#F5070000
(1557396622.964844) can0 190#D5070000
(1557396622.964978) can0 011#D5070000
(1557396622.965039) can0 192#64000000
(1557396622.965100) can0 010#F5070000
(1557396622.973164) can0 008#FFFFFFFF
(1557396622.973226) can0 00B#FFFFFFFF
(1557396622.984405) can0 012#FF070000
(1557396622.984785) can0 191#FC070000
(1557396622.984844) can0 190#D1070000
(1557396622.984958) can0 011#D1070000
(1557396622.985046) can0 192#62000000
(1557396622.985114) can0 010#FC070000
(1557396622.993198) can0 008#FFFFFFFF
(1557396622.993259) can0 00B#FFFFFFFF
(1557396623.004418) can0 012#FC070000
(1557396623.004797) can0 191#FF070000
(1557396623.004859) can0 190#D4070000
(1557396623.004992) can0 011#D4070000
(1557396623.005053) can0 192#63000000
(1557396623.005116) can0 010#FE070000
(1557396623.013220) can0 008#FFFFFFFF
(1557396623.013282) can0 00B#FFFFFFFF
(1557396623.024407) can0 012#FD070000
(1557396623.024785) can0 191#FA070000
(1557396623.024844) can0 190#D5070000
(1557396623.024959) can0 011#D1070000
(1557396623.025046) can0 192#63000000
(1557396623.025107) can0 010#FA070000
(1557396623.033271) can0 008#E4A6FF00
(1557396623.033333) can0 00B#FFFFFFFF
(1557396623.044410) can0 012#FB070000
(1557396623.044788) can0 191#F5070000
(1557396623.044850) can0 190#D1070000
(1557396623.044981) can0 011#D1070000
(1557396623.045043) can0 192#62000000
(1557396623.045103) can0 010#F5070000
(1557396623.053241) can0 008#FFFFFFFF
(1557396623.053302) can0 00B#FFFFFFFF
(1557396623.064411) can0 012#FC070000
(1557396623.064790) can0 191#F5070000
(1557396623.064855) can0 190#D5070000
(1557396623.064979) can0 011#D5070000
(1557396623.065065) can0 192#62000000
(1557396623.065133) can0 010#F1070000
(1557396623.073246) can0 008#FFFFFFFF
(1557396623.073303) can0 00B#FFFFFFFF
(1557396623.084425) can0 012#F9070000
(1557396623.084803) can0 191#F5070000
(1557396623.084864) can0 190#D5070000
(1557396623.084999) can0 011#D5070000
(1557396623.085059) can0 192#62000000
(1557396623.085120) can0 010#F5070000
(1557396623.093292) can0 008#AFE00100
(1557396623.093354) can0 00B#FFFFFFFF
(1557396623.104412) can0 012#01080000
(1557396623.104791) can0 191#FC070000
(1557396623.104873) can0 190#D5070000
(1557396623.104990) can0 011#D5070000
(1557396623.105046) can0 192#63000000
(1557396623.105105) can0 010#FA070000
(1557396623.113263) can0 008#FFFFFFFF
(1557396623.113320) can0 00B#FFFFFFFF
(1557396623.124414) can0 012#02080000
(1557396623.124793) can0 191#FA070000
(1557396623.124850) can0 190#D5070000
(1557396623.124981) can0 011#D5070000
(1557396623.125037) can0 192#62000000
(1557396623.125131) can0 010#F8070000
(1557396623.133316) can0 008#E8490100
(1557396623.133373) can0 00B#FFFFFFFF
(1557396623.144427) can0 012#03080000
(1557396623.144805) can0 191#FA070000
(1557396623.144869) can0 190#D7070000
(1557396623.144993) can0 011#D5070000
(1557396623.145055) can0 192#63000000
(1557396623.145146) can0 00D#74010000
(1557396623.145232) can0 010#FA070000
(1557396623.153301) can0 008#FFFFFFFF
(1557396623.153362) can0 00B#FFFFFFFF
(1557396623.164417) can0 012#FF070000
(1557396623.164794) can0 191#F8070000
(1557396623.164856) can0 190#E2070000
(1557396623.164996) can0 011#E0070000
(1557396623.165057) can0 192#64000000
(1557396623.165117) can0 010#F5070000
(1557396623.173327) can0 008#FFFFFFFF
(1557396623.173389) can0 00B#FFFFFFFF
(1557396623.184429) can0 012#FE070000
(1557396623.184808) can0 191#F5070000
(1557396623.184869) can0 190#E8070000
(1557396623.184996) can0 011#E7070000
(1557396623.185056) can0 064#FFEFCDAB
(1557396623.185130) can0 192#63000000
(1557396623.185247) can0 010#F5070000
(1557396623.193328) can0 008#FFFFFFFF
(1557396623.193390) can0 00B#2E7EFF00
(1557396623.204424) can0 012#F9070000
(1557396623.204799) can0 191#F5070000
(1557396623.204871) can0 190#EA070000
(1557396623.204976) can0 011#EA070000
(1557396623.205034) can0 192#62000000
(1557396623.205138) can0 010#F5070000
(1557396623.208986) can0 048#00000000
(1557396623.209068) can0 025#14010000
(1557396623.213363) can0 008#02340200
(1557396623.213424) can0 00B#FFFFFFFF
(1557396623.224420) can0 012#FD070000
(1557396623.224797) can0 191#F8070000
(1557396623.224869) can0 190#EA070000
(1557396623.224988) can0 011#EA070000
(1557396623.225049) can0 192#63000000
(1557396623.225172) can0 010#F5070000
(1557396623.229458) can0 048#00000000
(1557396623.229523) can0 025#FC000000
(1557396623.233334) can0 008#FFFFFFFF
(1557396623.233391) can0 00B#FFFFFFFF
(1557396623.244419) can0 012#02080000
(1557396623.244797) can0 191#F8070000
(1557396623.244859) can0 190#E2070000
(1557396623.244991) can0 011#E2070000
(1557396623.245052) can0 192#64000000
(1557396623.245111) can0 010#F8070000
(1557396623.245229) can0 048#00000000
(1557396623.245290) can0 025#14010000
(1557396623.250049) can0 048#00000000
(1557396623.250111) can0 025#14010000
(1557396623.253379) can0 008#2F330100
(1557396623.253440) can0 00B#FFFFFFFF
(1557396623.255237) can0 048#00000000
(1557396623.255368) can0 025#14010000
(1557396623.260801) can0 048#00000000
(1557396623.260921) can0 025#14010000
(1557396623.264419) can0 012#FE070000
(1557396623.264799) can0 191#F8070000
(1557396623.264868) can0 190#E0070000
(1557396623.264986) can0 011#DE070000
(1557396623.265046) can0 192#62000000
(1557396623.265170) can0 010#F8070000
(1557396623.265232) can0 048#00000000
(1557396623.273354) can0 008#FFFFFFFF
(1557396623.273415) can0 00B#FFFFFFFF
(1557396623.284420) can0 012#F6070000
(1557396623.284801) can0 191#FA070000
(1557396623.284862) can0 190#DE070000
(1557396623.284996) can0 011#DD070000
(1557396623.285057) can0 192#64000000
(1557396623.285117) can0 010#FA070000
(1557396623.293402) can0 008#F8430100
(1557396623.293463) can0 00B#FFFFFFFF
(1557396623.304425) can0 012#FA070000
(1557396623.304802) can0 191#FA070000
(1557396623.304864) can0 190#DD070000
(1557396623.304980) can0 011#DC070000
(1557396623.305042) can0 192#62000000
(1557396623.305118) can0 010#FA070000
(1557396623.313392) can0 008#FFFFFFFF
(1557396623.313454) can0 00B#FFFFFFFF
(1557396623.324423) can0 012#FB070000
(1557396623.324806) can0 191#F8070000
(1557396623.324868) can0 190#DD070000
(1557396623.324994) can0 011#DD070000
(1557396623.325055) can0 192#62000000
(1557396623.325178) can0 010#F5070000
(1557396623.333434) can0 008#94490100
(1557396623.333492) can0 00B#FFFFFFFF
(1557396623.344439) can0 012#FE070000
(1557396623.344816) can0 191#F5070000
(1557396623.344876) can0 190#DE070000
(1557396623.344990) can0 011#DD070000
(1557396623.345050) can0 192#62000000
(1557396623.345132) can0 00D#77010000
(1557396623.345253) can0 010#F5070000
(1557396623.353425) can0 008#FFFFFFFF
(1557396623.353481) can0 00B#FFFFFFFF
(1557396623.364427) can0 012#FD070000
(1557396623.364804) can0 191#F5070000
(1557396623.364867) can0 190#DE070000
(1557396623.364988) can0 011#DD070000
(1557396623.365053) can0 192#63000000
(1557396623.365118) can0 010#F5070000
(1557396623.373430) can0 008#FFFFFFFF
(1557396623.373492) can0 00B#FFFFFFFF
(1557396623.384427) can0 012#FF070000
(1557396623.384806) can0 191#F8070000
(1557396623.384868) can0 190#DC070000
(1557396623.385016) can0 011#D7070000
(1557396623.385078) can0 192#61000000
(1557396623.385138) can0 010#F8070000
(1557396623.393437) can0 008#FFFFFFFF
(1557396623.393499) can0 00B#FFFFFFFF
(1557396623.404428) can0 012#FB070000
(1557396623.404807) can0 191#FC070000
(1557396623.404869) can0 190#D5070000
(1557396623.405008) can0 011#D5070000
(1557396623.405069) can0 192#62000000
(1557396623.405129) can0 010#FA070000
(1557396623.413442) can0 008#FFFFFFFF
(1557396623.413504) can0 00B#FFFFFFFF
(1557396623.424429) can0 012#FA070000
(1557396623.424807) can0 191#FA070000
(1557396623.424870) can0 190#D5070000
(1557396623.425008) can0 011#D5070000
(1557396623.425069) can0 192#62000000
(1557396623.425135) can0 010#FA070000
(1557396623.433459) can0 008#FFFFFFFF
(1557396623.433522) can0 00B#FFFFFFFF
(1557396623.444430) can0 012#FA070000
(1557396623.444809) can0 191#F8070000
(1557396623.444874) can0 190#D5070000
(1557396623.445028) can0 011#D5070000
(1557396623.445089) can0 192#63000000
(1557396623.445148) can0 010#F5070000
(1557396623.453500) can0 008#DAF60300
(1557396623.453562) can0 00B#FFFFFFFF
(1557396623.464433) can0 012#F9070000
(1557396623.464810) can0 191#F5070000
(1557396623.464870) can0 190#D5070000
(1557396623.464998) can0 011#D5070000
(1557396623.465058) can0 192#63000000
(1557396623.465132) can0 010#F5070000
(1557396623.473489) can0 008#FFFFFFFF
(1557396623.473550) can0 00B#FFFFFFFF
(1557396623.484432) can0 012#FB070000
(1557396623.484811) can0 191#F5070000
(1557396623.484873) can0 190#D5070000
(1557396623.485006) can0 011#D5070000
(1557396623.485067) can0 192#64000000
(1557396623.485127) can0 010#F5070000
(1557396623.493534) can0 008#3D590100
(1557396623.493595) can0 00B#FFFFFFFF
(1557396623.504433) can0 012#FC070000
(1557396623.504813) can0 191#F8070000
(1557396623.504872) can0 190#D5070000
(1557396623.504987) can0 011#D5070000
(1557396623.505047) can0 192#62000000
(1557396623.505181) can0 010#F5070000
(1557396623.513513) can0 008#FFFFFFFF
(1557396623.513575) can0 00B#FFFFFFFF
(1557396623.524434) can0 012#FE070000
(1557396623.524813) can0 191#FA070000
(1557396623.524875) can0 190#D5070000
(1557396623.525006) can0 011#D5070000
(1557396623.525067) can0 192#62000000
(1557396623.525127) can0 010#FA070000
(1557396623.533519) can0 008#FFFFFFFF
(1557396623.533581) can0 00B#FFFFFFFF
