(1557396420.539085) can0 020#01000000
(1557396420.542190) can0 008#FFFFFFFF
(1557396420.542295) can0 00B#FFFFFFFF
(1557396420.553666) can0 012#FF070000
(1557396420.554031) can0 191#F8070000
(1557396420.554099) can0 190#D5070000
(1557396420.554208) can0 011#D5070000
(1557396420.554280) can0 192#53000000
(1557396420.554387) can0 010#F8070000
(1557396420.562272) can0 008#FFFFFFFF
(1557396420.562361) can0 00B#FFFFFFFF
(1557396420.573680) can0 012#01080000
(1557396420.574043) can0 191#F8070000
(1557396420.574119) can0 190#D5070000
(1557396420.574227) can0 011#D5070000
(1557396420.574285) can0 192#52000000
(1557396420.574389) can0 010#F5070000
(1557396420.579361) can0 009#FFFFFFFF
(1557396420.579476) can0 00A#FFFFFFFF
(1557396420.582187) can0 008#FFFFFFFF
(1557396420.582301) can0 00B#FFFFFFFF
(1557396420.593656) can0 012#FD070000
(1557396420.602193) can0 008#FFFFFFFF
(1557396420.602272) can0 00B#FFFFFFFF
(1557396420.604705) can0 191#F8070000
(1557396420.604773) can0 190#D5070000
(1557396420.604859) can0 011#D5070000
(1557396420.604926) can0 192#53000000
(1557396420.605054) can0 010#F8070000
(1557396420.613668) can0 012#FF070000
(1557396420.614032) can0 191#F8070000
(1557396420.614141) can0 190#D5070000
(1557396420.614204) can0 011#D5070000
(1557396420.614311) can0 192#52000000
(1557396420.614369) can0 010#F5070000
(1557396420.622214) can0 008#FFFFFFFF
(1557396420.622331) can0 00B#FFFFFFFF
(1557396420.633671) can0 012#FE070000
(1557396420.634033) can0 191#F8070000
(1557396420.634144) can0 190#D5070000
(1557396420.634207) can0 011#D7070000
(1557396420.634264) can0 192#53000000
(1557396420.634376) can0 010#F5070000
(1557396420.642220) can0 008#FFFFFFFF
(1557396420.642304) can0 00B#FFFFFFFF
(1557396420.653671) can0 012#01080000
(1557396420.654038) can0 191#F8070000
(1557396420.654108) can0 190#D5070000
(1557396420.654224) can0 011#D5070000
(1557396420.654282) can0 192#51000000
(1557396420.654404) can0 010#F5070000
(1557396420.662241) can0 008#FFFFFFFF
(1557396420.662312) can0 00B#FFFFFFFF
(1557396420.673671) can0 012#FF070000
(1557396420.674040) can0 191#F8070000
(1557396420.674102) can0 190#D5070000
(1557396420.674220) can0 011#D5070000
(1557396420.674279) can0 192#52000000
(1557396420.674401) can0 010#F5070000
(1557396420.682253) can0 008#FFFFFFFF
(1557396420.682324) can0 00B#FFFFFFFF
(1557396420.693672) can0 012#FC070000
(1557396420.694040) can0 191#F8070000
(1557396420.694111) can0 190#D7070000
(1557396420.694226) can0 011#D5070000
(1557396420.694284) can0 192#52000000
(1557396420.694406) can0 010#F5070000
(1557396420.702262) can0 008#FFFFFFFF
(1557396420.702333) can0 00B#FFFFFFFF
(1557396420.713673) can0 012#FF070000
(1557396420.714042) can0 191#F8070000
(1557396420.714113) can0 190#D5070000
(1557396420.714241) can0 011#D5070000
(1557396420.714300) can0 192#53000000
(1557396420.714357) can0 010#F8070000
(1557396420.722285) can0 008#FFFFFFFF
(1557396420.722355) can0 00B#FFFFFFFF
(1557396420.733687) can0 012#FF070000
(1557396420.734055) can0 191#F8070000
(1557396420.734126) can0 190#D5070000
(1557396420.734249) can0 011#D5070000
(1557396420.734356) can0 192#52000000
(1557396420.734414) can0 00D#76010000
(1557396420.734471) can0 010#F8070000
(1557396420.742285) can0 008#FFFFFFFF
(1557396420.742347) can0 00B#FFFFFFFF
(1557396420.753679) can0 012#00080000
(1557396420.754045) can0 191#F8070000
(1557396420.754123) can0 190#D5070000
(1557396420.754250) can0 011#D5070000
(1557396420.754308) can0 192#54000000
(1557396420.754364) can0 010#F5070000
(1557396420.762307) can0 008#FFFFFFFF
(1557396420.762379) can0 00B#FFFFFFFF
(1557396420.773688) can0 012#FF070000
(1557396420.774057) can0 191#F8070000
(1557396420.774129) can0 190#D5070000
(1557396420.774244) can0 011#D5070000
(1557396420.774303) can0 064#FFEFCDAB
(1557396420.774406) can0 192#52000000
(1557396420.774465) can0 010#F5070000
(1557396420.782313) can0 008#FFFFFFFF
(1557396420.782384) can0 00B#FFFFFFFF
(1557396420.793680) can0 012#FE070000
(1557396420.794045) can0 191#F8070000
(1557396420.794123) can0 190#D5070000
(1557396420.794243) can0 011#D5070000
(1557396420.794301) can0 192#53000000
(1557396420.794358) can0 010#F8070000
(1557396420.802321) can0 008#FFFFFFFF
(1557396420.802395) can0 00B#FFFFFFFF
(1557396420.813681) can0 012#FE070000
(1557396420.814047) can0 191#F8070000
(1557396420.814116) can0 190#D7070000
(1557396420.814229) can0 011#D5070000
(1557396420.814286) can0 192#52000000
(1557396420.814391) can0 010#F8070000
(1557396420.822333) can0 008#FFFFFFFF
(1557396420.822403) can0 00B#FFFFFFFF
(1557396420.833681) can0 012#01080000
(1557396420.834047) can0 191#F8070000
(1557396420.834117) can0 190#D5070000
(1557396420.834231) can0 011#D5070000
(1557396420.834288) can0 192#52000000
(1557396420.834393) can0 010#F5070000
(1557396420.842351) can0 008#FFFFFFFF
(1557396420.842415) can0 00B#FFFFFFFF
(1557396420.853681) can0 012#FE070000
(1557396420.854049) can0 191#F8070000
(1557396420.854113) can0 190#D5070000
(1557396420.854218) can0 011#D5070000
(1557396420.854275) can0 192#52000000
(1557396420.854390) can0 010#F8070000
(1557396420.862374) can0 008#FFFFFFFF
(1557396420.862445) can0 00B#FFFFFFFF
(1557396420.873682) can0 012#FF070000
(1557396420.874049) can0 191#F8070000
(1557396420.874119) can0 190#D5070000
(1557396420.874228) can0 011#D5070000
(1557396420.874285) can0 192#52000000
(1557396420.874390) can0 010#F8070000
(1557396420.882381) can0 008#FFFFFFFF
(1557396420.882451) can0 00B#FFFFFFFF
(1557396420.893683) can0 012#FF070000
(1557396420.894046) can0 191#F8070000
(1557396420.894115) can0 190#D5070000
(1557396420.894227) can0 011#D5070000
(1557396420.894284) can0 192#53000000
(1557396420.894388) can0 010#F5070000
(1557396420.902386) can0 008#FFFFFFFF
(1557396420.902501) can0 00B#FFFFFFFF
(1557396420.913685) can0 012#01080000
(1557396420.914049) can0 191#F8070000
(1557396420.914118) can0 190#D5070000
(1557396420.914234) can0 011#D5070000
(1557396420.914292) can0 192#52000000
(1557396420.914398) can0 010#F8070000
(1557396420.922393) can0 008#FFFFFFFF
(1557396420.922507) can0 00B#FFFFFFFF
(1557396420.933698) can0 012#02080000
(1557396420.934062) can0 191#F8070000
(1557396420.934168) can0 190#D5070000
(1557396420.934231) can0 011#D5070000
(1557396420.934341) can0 192#52000000
(1557396420.934398) can0 00D#77010000
(1557396420.934512) can0 010#F8070000
(1557396420.942413) can0 008#FFFFFFFF
(1557396420.942538) can0 00B#FFFFFFFF
(1557396420.953687) can0 012#FC070000
(1557396420.954053) can0 191#F8070000
(1557396420.954128) can0 190#D7070000
(1557396420.954244) can0 011#D5070000
(1557396420.954303) can0 192#52000000
(1557396420.954415) can0 010#F8070000
(1557396420.962418) can0 008#FFFFFFFF
(1557396420.962521) can0 00B#FFFFFFFF
(1557396420.972915) can0 048#00000000
(1557396420.972988) can0 025#14010000
(1557396420.973684) can0 012#00080000
(1557396420.974056) can0 191#F8070000
(1557396420.974117) can0 190#D5070000
(1557396420.974230) can0 011#D5070000
(1557396420.974288) can0 192#52000000
(1557396420.974392) can0 010#F8070000
(1557396420.982453) can0 008#FFFFFFFF
(1557396420.982527) can0 00B#FFFFFFFF
(1557396420.993392) can0 048#00000000
(1557396420.993463) can0 025#FC000000
(1557396420.993686) can0 012#FD070000
(1557396420.994057) can0 191#F8070000
(1557396420.994128) can0 190#D5070000
(1557396420.994245) can0 011#D5070000
(1557396420.994303) can0 192#52000000
(1557396420.994417) can0 010#F8070000
(1557396421.001705) can0 048#00000000
(1557396421.001770) can0 025#14010000
(1557396421.002475) can0 008#FFFFFFFF
(1557396421.002554) can0 00B#FFFFFFFF
(1557396421.007011) can0 048#00000000
(1557396421.007104) can0 025#14010000
(1557396421.012456) can0 048#00000000
(1557396421.012524) can0 025#14010000
(1557396421.013741) can0 012#02080000
(1557396421.014066) can0 191#F8070000
(1557396421.014187) can0 190#D5070000
(1557396421.014246) can0 011#D5070000
(1557396421.014306) can0 192#52000000
(1557396421.014423) can0 010#F8070000
(1557396421.017590) can0 048#00000000
(1557396421.017667) can0 025#14010000
(1557396421.021662) can0 048#00000000
(1557396421.021749) can0 025#14010000
(1557396421.022478) can0 008#FFFFFFFF
(1557396421.022552) can0 00B#FFFFFFFF
(1557396421.025248) can0 048#00000000
(1557396421.025320) can0 025#14010000
(1557396421.028830) can0 048#00000000
(1557396421.028945) can0 025#14010000
(1557396421.033689) can0 012#FF070000
(1557396421.034057) can0 191#F8070000
(1557396421.034130) can0 190#D5070000
(1557396421.034247) can0 011#D5070000
(1557396421.034305) can0 192#52000000
(1557396421.034418) can0 010#F5070000
(1557396421.042486) can0 008#FFFFFFFF
(1557396421.042545) can0 00B#FFFFFFFF
(1557396421.053693) can0 012#02080000
(1557396421.054056) can0 191#F8070000
(1557396421.054170) can0 190#D5070000
(1557396421.054234) can0 011#D5070000
(1557396421.054291) can0 192#51000000
(1557396421.054398) can0 010#F8070000
(1557396421.062483) can0 008#FFFFFFFF
(1557396421.062598) can0 00B#FFFFFFFF
(1557396421.073708) can0 012#01080000
(1557396421.074068) can0 191#F8070000
(1557396421.074133) can0 190#D7070000
(1557396421.074244) can0 011#D5070000
(1557396421.074303) can0 192#52000000
(1557396421.074409) can0 010#F8070000
(1557396421.082505) can0 008#FFFFFFFF
(1557396421.082621) can0 00B#FFFFFFFF
(1557396421.093694) can0 012#FF070000
(1557396421.094061) can0 191#FA070000
(1557396421.094125) can0 190#D5070000
(1557396421.094237) can0 011#D5070000
(1557396421.094295) can0 192#52000000
(1557396421.094401) can0 010#F8070000
(1557396421.102510) can0 008#FFFFFFFF
(1557396421.102583) can0 00B#FFFFFFFF
(1557396421.113694) can0 012#FC070000
(1557396421.114063) can0 191#F8070000
(1557396421.114176) can0 190#D5070000
(1557396421.114241) can0 011#D5070000
(1557396421.114307) can0 192#52000000
(1557396421.114419) can0 010#F5070000
(1557396421.122532) can0 008#FFFFFFFF
(1557396421.122604) can0 00B#FFFFFFFF
(1557396421.133707) can0 012#FE070000
(1557396421.134074) can0 191#F5070000
(1557396421.134134) can0 190#D7070000
(1557396421.134246) can0 011#D5070000
(1557396421.134305) can0 192#53000000
(1557396421.134416) can0 00D#78010000
(1557396421.134474) can0 010#F5070000
(1557396421.142546) can0 008#FFFFFFFF
(1557396421.142655) can0 00B#FFFFFFFF
(1557396421.153696) can0 012#FF070000
(1557396421.154065) can0 191#F8070000
(1557396421.154130) can0 190#D5070000
(1557396421.154245) can0 011#D5070000
(1557396421.154304) can0 192#54000000
(1557396421.154417) can0 010#F8070000
(1557396421.162565) can0 008#FFFFFFFF
(1557396421.162638) can0 00B#FFFFFFFF
(1557396421.173710) can0 012#FF070000
(1557396421.174078) can0 191#F8070000
(1557396421.174142) can0 190#D5070000
(1557396421.174247) can0 011#D5070000
(1557396421.174305) can0 064#FFEFCDAB
(1557396421.174418) can0 192#52000000
(1557396421.174478) can0 010#F8070000
(1557396421.182570) can0 008#FFFFFFFF
(1557396421.182643) can0 00B#FFFFFFFF
(1557396421.193698) can0 012#FE070000
(1557396421.194065) can0 191#F8070000
(1557396421.194130) can0 190#D5070000
(1557396421.194240) can0 011#D5070000
(1557396421.194299) can0 192#52000000
(1557396421.194412) can0 010#F8070000
(1557396421.202588) can0 008#FFFFFFFF
(1557396421.202656) can0 00B#FFFFFFFF
(1557396421.213699) can0 012#FB070000
(1557396421.214066) can0 191#F8070000
(1557396421.214130) can0 190#D7070000
(1557396421.214240) can0 011#D7070000
(1557396421.214297) can0 192#53000000
(1557396421.214410) can0 010#F8070000
(1557396421.222610) can0 008#FFFFFFFF
(1557396421.222683) can0 00B#FFFFFFFF
(1557396421.233700) can0 012#00080000
(1557396421.234067) can0 191#F8070000
(1557396421.234132) can0 190#D5070000
(1557396421.234241) can0 011#D5070000
(1557396421.234300) can0 192#52000000
(1557396421.234412) can0 010#F5070000
(1557396421.242613) can0 008#FFFFFFFF
(1557396421.242736) can0 00B#FFFFFFFF
(1557396421.253702) can0 012#FF070000
(1557396421.254069) can0 191#F8070000
(1557396421.254141) can0 190#D5070000
(1557396421.254254) can0 011#D5070000
(1557396421.254312) can0 192#53000000
(1557396421.254417) can0 010#F8070000
(1557396421.262634) can0 008#FFFFFFFF
(1557396421.262706) can0 00B#FFFFFFFF
(1557396421.273704) can0 012#FF070000
(1557396421.274073) can0 191#F8070000
(1557396421.274144) can0 190#D5070000
(1557396421.274261) can0 011#D5070000
(1557396421.274319) can0 192#51000000
(1557396421.274432) can0 010#F5070000
(1557396421.282641) can0 008#FFFFFFFF
(1557396421.282713) can0 00B#FFFFFFFF
(1557396421.293718) can0 012#00080000
(1557396421.294084) can0 191#F8070000
(1557396421.294157) can0 190#D5070000
(1557396421.294270) can0 011#D5070000
(1557396421.294329) can0 192#53000000
(1557396421.294441) can0 010#F5070000
(1557396421.302654) can0 008#FFFFFFFF
(1557396421.302725) can0 00B#FFFFFFFF
(1557396421.313706) can0 012#01080000
(1557396421.314076) can0 191#F8070000
(1557396421.314150) can0 190#D5070000
(1557396421.314267) can0 011#D5070000
(1557396421.314326) can0 192#53000000
(1557396421.314430) can0 010#F8070000
(1557396421.322667) can0 008#FFFFFFFF
(1557396421.322739) can0 00B#FFFFFFFF
(1557396421.333721) can0 012#FF070000
(1557396421.334083) can0 191#F8070000
(1557396421.334155) can0 190#D5070000
(1557396421.334268) can0 011#D5070000
(1557396421.334327) can0 192#52000000
(1557396421.334431) can0 00D#76010000
(1557396421.334488) can0 010#F8070000
(1557396421.342679) can0 008#FFFFFFFF
(1557396421.342818) can0 00B#FFFFFFFF
(1557396421.353709) can0 012#FE070000
(1557396421.354074) can0 191#F8070000
(1557396421.354138) can0 190#D5070000
(1557396421.354253) can0 011#D5070000
(1557396421.354314) can0 192#50000000
(1557396421.354418) can0 010#F8070000
(1557396421.362700) can0 008#FFFFFFFF
(1557396421.362844) can0 00B#FFFFFFFF
(1557396421.373710) can0 012#FE070000
(1557396421.374072) can0 191#F8070000
(1557396421.374187) can0 190#D5070000
(1557396421.374254) can0 011#D5070000
(1557396421.374311) can0 192#53000000
(1557396421.374415) can0 010#F5070000
(1557396421.382702) can0 008#FFFFFFFF
(1557396421.382846) can0 00B#FFFFFFFF
(1557396421.393710) can0 012#FF070000
(1557396421.394075) can0 191#F8070000
(1557396421.394143) can0 190#D5070000
(1557396421.394252) can0 011#D7070000
(1557396421.394313) can0 192#53000000
(1557396421.394417) can0 010#F5070000
(1557396421.394691) can0 048#00000000
(1557396421.394809) can0 025#14010000
(1557396421.402732) can0 008#FFFFFFFF
(1557396421.402884) can0 00B#FFFFFFFF
(1557396421.413713) can0 012#FF070000
(1557396421.414074) can0 191#F8070000
(1557396421.414151) can0 190#D5070000
(1557396421.414259) can0 011#D5070000
(1557396421.414317) can0 192#52000000
(1557396421.414423) can0 010#F5070000
(1557396421.415169) can0 048#00000000
(1557396421.415229) can0 025#FC000000
(1557396421.422734) can0 008#FFFFFFFF
(1557396421.422855) can0 00B#FFFFFFFF
(1557396421.428111) can0 048#00000000
(1557396421.428190) can0 025#14010000
(1557396421.433712) can0 012#FF070000
(1557396421.433780) can0 048#00000000
(1557396421.433896) can0 025#14010000
(1557396421.434077) can0 191#F8070000
(1557396421.434134) can0 190#D5070000
(1557396421.434246) can0 011#D5070000
(1557396421.434306) can0 192#52000000
(1557396421.434417) can0 010#F5070000
(1557396421.437806) can0 048#00000000
(1557396421.437920) can0 025#14010000
(1557396421.442743) can0 008#FFFFFFFF
(1557396421.442902) can0 00B#FFFFFFFF
(1557396421.442968) can0 048#00000000
(1557396421.443031) can0 025#14010000
(1557396421.448053) can0 048#00000000
(1557396421.448133) can0 025#14010000
(1557396421.453711) can0 012#FC070000
(1557396421.454081) can0 191#F8070000
(1557396421.454140) can0 190#D5070000
(1557396421.454254) can0 011#D5070000
(1557396421.454314) can0 192#52000000
(1557396421.454427) can0 010#F5070000
(1557396421.462806) can0 008#FFFFFFFF
(1557396421.462877) can0 00B#FFFFFFFF
(1557396421.473713) can0 012#00080000
(1557396421.474082) can0 191#F8070000
(1557396421.474159) can0 190#D5070000
(1557396421.474277) can0 011#D5070000
(1557396421.474335) can0 192#54000000
(1557396421.474391) can0 010#F8070000
(1557396421.482813) can0 008#FFFFFFFF
(1557396421.482896) can0 00B#FFFFFFFF
(1557396421.493715) can0 012#00080000
(1557396421.494081) can0 191#F8070000
(1557396421.494149) can0 190#D7070000
(1557396421.494254) can0 011#D7070000
(1557396421.494314) can0 192#53000000
(1557396421.494428) can0 010#F8070000
(1557396421.502837) can0 008#FFFFFFFF
(1557396421.502901) can0 00B#FFFFFFFF
(1557396421.513715) can0 012#FA070000
(1557396421.514086) can0 191#F8070000
(1557396421.514161) can0 190#D5070000
(1557396421.514278) can0 011#D5070000
(1557396421.514337) can0 192#52000000
(1557396421.514444) can0 010#F8070000
(1557396421.522847) can0 008#FFFFFFFF
(1557396421.522916) can0 00B#FFFFFFFF
(1557396421.533772) can0 012#FF070000
(1557396421.534100) can0 191#F8070000
(1557396421.534191) can0 190#D5070000
(1557396421.534248) can0 011#D5070000
(1557396421.534365) can0 192#52000000
(1557396421.534427) can0 00D#75010000
(1557396421.534535) can0 010#F8070000
(1557396421.539059) can0 020#01000000
(1557396421.542841) can0 008#FFFFFFFF
(1557396421.542899) can0 00B#FFFFFFFF
(1557396421.553718) can0 012#FC070000
(1557396421.554087) can0 191#F8070000
(1557396421.554163) can0 190#D5070000
(1557396421.554286) can0 011#D5070000
(1557396421.554348) can0 192#53000000
(1557396421.554407) can0 010#F5070000
(1557396421.562849) can0 008#FFFFFFFF
(1557396421.562920) can0 00B#FFFFFFFF
(1557396421.573742) can0 012#FC070000
(1557396421.574109) can0 191#F8070000
(1557396421.574184) can0 190#D5070000
(1557396421.574298) can0 011#D5070000
(1557396421.574358) can0 064#FFEFCDAB
(1557396421.574490) can0 192#52000000
(1557396421.574551) can0 010#F8070000
(1557396421.582864) can0 008#FFFFFFFF
(1557396421.582935) can0 00B#FFFFFFFF
(1557396421.593719) can0 012#02080000
(1557396421.602876) can0 008#FFFFFFFF
(1557396421.602947) can0 00B#FFFFFFFF
(1557396421.604736) can0 191#F8070000
(1557396421.604814) can0 190#D5070000
(1557396421.604929) can0 011#D5070000
(1557396421.604987) can0 192#53000000
(1557396421.605092) can0 010#F8070000
(1557396421.613709) can0 012#FF070000
(1557396421.614088) can0 191#F8070000
(1557396421.614155) can0 190#D5070000
(1557396421.614267) can0 011#D5070000
(1557396421.614328) can0 192#53000000
(1557396421.614434) can0 010#F8070000
(1557396421.622882) can0 008#FFFFFFFF
(1557396421.622953) can0 00B#FFFFFFFF
(1557396421.633710) can0 012#FE070000
(1557396421.634088) can0 191#F8070000
(1557396421.634155) can0 190#D5070000
(1557396421.634271) can0 011#D5070000
(1557396421.634332) can0 192#53000000
(1557396421.634439) can0 010#F5070000
(1557396421.642889) can0 008#FFFFFFFF
(1557396421.642951) can0 00B#FFFFFFFF
(1557396421.653711) can0 012#01080000
(1557396421.654089) can0 191#F8070000
(1557396421.654158) can0 190#D5070000
(1557396421.654271) can0 011#D5070000
(1557396421.654330) can0 192#52000000
(1557396421.654434) can0 010#F5070000
(1557396421.662899) can0 008#FFFFFFFF
(1557396421.662977) can0 00B#FFFFFFFF
(1557396421.673711) can0 012#FE070000
(1557396421.674091) can0 191#F8070000
(1557396421.674151) can0 190#D5070000
(1557396421.674268) can0 011#D5070000
(1557396421.674329) can0 192#53000000
(1557396421.674433) can0 010#F8070000
(1557396421.682904) can0 008#FFFFFFFF
(1557396421.682983) can0 00B#FFFFFFFF
(1557396421.693712) can0 012#01080000
(1557396421.694092) can0 191#F8070000
(1557396421.694151) can0 190#D7070000
(1557396421.694273) can0 011#D5070000
(1557396421.694332) can0 192#52000000
(1557396421.694436) can0 010#F8070000
(1557396421.702923) can0 008#FFFFFFFF
(1557396421.703000) can0 00B#FFFFFFFF
(1557396421.713711) can0 012#01080000
(1557396421.714097) can0 191#F8070000
(1557396421.714165) can0 190#D5070000
(1557396421.714278) can0 011#D5070000
(1557396421.714335) can0 192#52000000
(1557396421.714439) can0 010#F8070000
(1557396421.722940) can0 008#FFFFFFFF
(1557396421.723023) can0 00B#FFFFFFFF
(1557396421.733727) can0 012#FF070000
(1557396421.734106) can0 191#F8070000
(1557396421.734182) can0 190#D5070000
(1557396421.734295) can0 011#D5070000
(1557396421.734356) can0 192#52000000
(1557396421.734468) can0 00D#79010000
(1557396421.734526) can0 010#F8070000
(1557396421.742948) can0 008#FFFFFFFF
(1557396421.743016) can0 00B#FFFFFFFF
(1557396421.753718) can0 012#FB070000
(1557396421.754097) can0 191#F8070000
(1557396421.754167) can0 190#D5070000
(1557396421.754277) can0 011#D5070000
(1557396421.754334) can0 192#52000000
(1557396421.754447) can0 010#F8070000
(1557396421.762976) can0 008#FFFFFFFF
(1557396421.763044) can0 00B#FFFFFFFF
(1557396421.773716) can0 012#FD070000
(1557396421.774095) can0 191#F8070000
(1557396421.774165) can0 190#D5070000
(1557396421.774279) can0 011#D5070000
(1557396421.774339) can0 192#52000000
(1557396421.774454) can0 010#F8070000
(1557396421.782987) can0 008#FFFFFFFF
(1557396421.783058) can0 00B#FFFFFFFF
(1557396421.793717) can0 012#FF070000
(1557396421.794099) can0 191#F8070000
(1557396421.794178) can0 190#D5070000
(1557396421.794245) can0 011#D5070000
(1557396421.794359) can0 192#53000000
(1557396421.794416) can0 010#F8070000
(1557396421.802990) can0 008#FFFFFFFF
(1557396421.803068) can0 00B#FFFFFFFF
(1557396421.813720) can0 012#00080000
(1557396421.814100) can0 191#F8070000
(1557396421.814178) can0 190#D5070000
(1557396421.814290) can0 011#D5070000
(1557396421.814351) can0 192#53000000
(1557396421.814463) can0 010#F8070000
(1557396421.817387) can0 048#00000000
(1557396421.817850) can0 025#14010000
(1557396421.822990) can0 008#FFFFFFFF
(1557396421.823069) can0 00B#FFFFFFFF
(1557396421.833726) can0 012#FC070000
(1557396421.834115) can0 191#F8070000
(1557396421.834176) can0 190#D7070000
(1557396421.834304) can0 011#D5070000
(1557396421.834360) can0 192#53000000
(1557396421.834415) can0 010#F5070000
(1557396421.837870) can0 048#00000000
(1557396421.837928) can0 025#FC000000
(1557396421.843016) can0 008#FFFFFFFF
(1557396421.843078) can0 00B#FFFFFFFF
(1557396421.849303) can0 048#00000000
(1557396421.849433) can0 025#14010000
(1557396421.853723) can0 012#FF070000
(1557396421.854102) can0 191#F8070000
(1557396421.854162) can0 190#D5070000
(1557396421.854304) can0 011#D5070000
(1557396421.854366) can0 192#52000000
(1557396421.854426) can0 010#F8070000
(1557396421.854561) can0 048#00000000
(1557396421.854621) can0 025#14010000
(1557396421.859994) can0 048#00000000
(1557396421.860120) can0 025#14010000
(1557396421.863020) can0 008#FFFFFFFF
(1557396421.863081) can0 00B#FFFFFFFF
(1557396421.864601) can0 048#00000000
(1557396421.864729) can0 025#14010000
(1557396421.868184) can0 048#00000000
(1557396421.868309) can0 025#14010000
(1557396421.873721) can0 012#FF070000
(1557396421.874105) can0 191#F8070000
(1557396421.874165) can0 190#D7070000
(1557396421.874305) can0 011#D5070000
(1557396421.874366) can0 192#52000000
(1557396421.874425) can0 010#F5070000
(1557396421.883022) can0 008#FFFFFFFF
(1557396421.883083) can0 00B#FFFFFFFF
(1557396421.893724) can0 012#FD070000
(1557396421.894102) can0 191#F8070000
(1557396421.894162) can0 190#D5070000
(1557396421.894291) can0 011#D5070000
(1557396421.894353) can0 192#52000000
(1557396421.894470) can0 010#F5070000
(1557396421.903048) can0 008#FFFFFFFF
(1557396421.903107) can0 00B#FFFFFFFF
(1557396421.913724) can0 012#01080000
(1557396421.914106) can0 191#F8070000
(1557396421.914166) can0 190#D5070000
(1557396421.914300) can0 011#D5070000
(1557396421.914360) can0 192#53000000
(1557396421.914426) can0 010#F8070000
(1557396421.923065) can0 008#FFFFFFFF
(1557396421.923125) can0 00B#FFFFFFFF
(1557396421.933737) can0 012#FE070000
(1557396421.934118) can0 191#F8070000
(1557396421.934179) can0 190#D5070000
(1557396421.934312) can0 011#D5070000
(1557396421.934373) can0 192#53000000
(1557396421.934432) can0 00D#78010000
(1557396421.934548) can0 010#F8070000
(1557396421.943072) can0 008#FFFFFFFF
(1557396421.943131) can0 00B#FFFFFFFF
(1557396421.953728) can0 012#00080000
(1557396421.954109) can0 191#F8070000
(1557396421.954171) can0 190#D5070000
(1557396421.954302) can0 011#D5070000
(1557396421.954362) can0 192#53000000
(1557396421.954479) can0 010#F8070000
(1557396421.963079) can0 008#FFFFFFFF
(1557396421.963139) can0 00B#FFFFFFFF
(1557396421.973740) can0 012#FC070000
(1557396421.974118) can0 191#F8070000
(1557396421.974179) can0 190#D5070000
(1557396421.974312) can0 011#D5070000
(1557396421.974371) can0 064#FFEFCDAB
(1557396421.974488) can0 192#53000000
(1557396421.974549) can0 010#F5070000
(1557396421.983094) can0 008#FFFFFFFF
(1557396421.983154) can0 00B#FFFFFFFF
(1557396421.993729) can0 012#FF070000
(1557396421.994109) can0 191#F8070000
(1557396421.994171) can0 190#D5070000
(1557396421.994298) can0 011#D5070000
(1557396421.994358) can0 192#53000000
(1557396421.994485) can0 010#F8070000
(1557396422.003109) can0 008#FFFFFFFF
(1557396422.003170) can0 00B#FFFFFFFF
(1557396422.013731) can0 012#FF070000
(1557396422.014110) can0 191#F8070000
(1557396422.014172) can0 190#D5070000
(1557396422.014302) can0 011#D5070000
(1557396422.014362) can0 192#52000000
(1557396422.014487) can0 010#F8070000
(1557396422.023115) can0 008#FFFFFFFF
(1557396422.023175) can0 00B#FFFFFFFF
(1557396422.033731) can0 012#FF070000
(1557396422.034113) can0 191#F8070000
(1557396422.034201) can0 190#D5070000
(1557396422.034279) can0 011#D5070000
(1557396422.034402) can0 192#53000000
(1557396422.034463) can0 010#F8070000
(1557396422.043163) can0 008#FFFFFFFF
(1557396422.043230) can0 00B#FFFFFFFF
(1557396422.053750) can0 012#00080000
(1557396422.054115) can0 191#F8070000
(1557396422.054182) can0 190#D7070000
(1557396422.054280) can0 011#D7070000
(1557396422.054339) can0 192#52000000
(1557396422.054453) can0 010#F5070000
(1557396422.063146) can0 008#FFFFFFFF
(1557396422.063213) can0 00B#FFFFFFFF
(1557396422.073746) can0 012#FE070000
(1557396422.074126) can0 191#F8070000
(1557396422.074195) can0 190#D5070000
(1557396422.074292) can0 011#D5070000
(1557396422.074352) can0 192#53000000
(1557396422.074462) can0 010#F8070000
(1557396422.083152) can0 008#FFFFFFFF
(1557396422.083228) can0 00B#FFFFFFFF
(1557396422.093734) can0 012#FC070000
(1557396422.094113) can0 191#F8070000
(1557396422.094175) can0 190#D5070000
(1557396422.094322) can0 011#D5070000
(1557396422.094382) can0 192#53000000
(1557396422.094441) can0 010#F5070000
(1557396422.103179) can0 008#FFFFFFFF
(1557396422.103239) can0 00B#FFFFFFFF
(1557396422.113733) can0 012#02080000
(1557396422.114119) can0 191#F8070000
(1557396422.114183) can0 190#D5070000
(1557396422.114315) can0 011#D5070000
(1557396422.114374) can0 192#52000000
(1557396422.114431) can0 010#F8070000
(1557396422.123185) can0 008#FFFFFFFF
(1557396422.123245) can0 00B#FFFFFFFF
(1557396422.133748) can0 012#FB070000
(1557396422.134127) can0 191#F8070000
(1557396422.134187) can0 190#D5070000
(1557396422.134330) can0 011#D5070000
(1557396422.134389) can0 192#52000000
(1557396422.134448) can0 00D#77010000
(1557396422.134563) can0 010#F8070000
(1557396422.143191) can0 008#FFFFFFFF
(1557396422.143251) can0 00B#FFFFFFFF
(1557396422.153736) can0 012#00080000
(1557396422.154119) can0 191#F8070000
(1557396422.154179) can0 190#D5070000
(1557396422.154299) can0 011#D5070000
(1557396422.154359) can0 192#53000000
(1557396422.154485) can0 010#F8070000
(1557396422.163210) can0 008#FFFFFFFF
(1557396422.163270) can0 00B#FFFFFFFF
(1557396422.173738) can0 012#FF070000
(1557396422.174117) can0 191#F8070000
(1557396422.174177) can0 190#D5070000
(1557396422.174312) can0 011#D5070000
(1557396422.174371) can0 192#52000000
(1557396422.174430) can0 010#F8070000
(1557396422.183215) can0 008#FFFFFFFF
(1557396422.183275) can0 00B#FFFFFFFF
(1557396422.193738) can0 012#FF070000
(1557396422.194119) can0 191#F8070000
(1557396422.194182) can0 190#D5070000
(1557396422.194305) can0 011#D5070000
(1557396422.194365) can0 192#52000000
(1557396422.194481) can0 010#F5070000
(1557396422.203221) can0 008#FFFFFFFF
(1557396422.203281) can0 00B#FFFFFFFF
(1557396422.213739) can0 012#FB070000
(1557396422.214119) can0 191#F8070000
(1557396422.214179) can0 190#D7070000
(1557396422.214313) can0 011#D5070000
(1557396422.214372) can0 192#52000000
(1557396422.214489) can0 010#F8070000
(1557396422.223235) can0 008#FFFFFFFF
(1557396422.223296) can0 00B#FFFFFFFF
(1557396422.233741) can0 012#FF070000
(1557396422.234121) can0 191#F8070000
(1557396422.234184) can0 190#D7070000
(1557396422.234316) can0 011#D5070000
(1557396422.234376) can0 192#52000000
(1557396422.234435) can0 010#F8070000
(1557396422.239606) can0 048#00000000
(1557396422.239667) can0 025#14010000
(1557396422.243253) can0 008#FFFFFFFF
(1557396422.243313) can0 00B#FFFFFFFF
(1557396422.253745) can0 012#FD070000
(1557396422.254121) can0 191#FA070000
(1557396422.254181) can0 190#D5070000
(1557396422.254303) can0 011#D5070000
(1557396422.254364) can0 192#52000000
(1557396422.254481) can0 010#F8070000
(1557396422.261911) can0 048#00000000
(1557396422.261973) can0 025#FC000000
(1557396422.263260) can0 008#FFFFFFFF
(1557396422.263322) can0 00B#FFFFFFFF
(1557396422.273743) can0 012#FE070000
(1557396422.274124) can0 191#F8070000
(1557396422.274187) can0 190#D5070000
(1557396422.274308) can0 011#D5070000
(1557396422.274368) can0 192#52000000
(1557396422.274499) can0 010#F5070000
(1557396422.283279) can0 008#FFFFFFFF
(1557396422.283340) can0 00B#FFFFFFFF
(1557396422.293745) can0 012#FD070000
(1557396422.294124) can0 191#F8070000
(1557396422.294185) can0 190#D5070000
(1557396422.294320) can0 011#D5070000
(1557396422.294380) can0 192#54000000
(1557396422.294441) can0 010#F8070000
(1557396422.303288) can0 008#FFFFFFFF
(1557396422.303348) can0 00B#FFFFFFFF
(1557396422.313745) can0 012#00080000
(1557396422.314128) can0 191#F8070000
(1557396422.314188) can0 190#D5070000
(1557396422.314312) can0 011#D5070000
(1557396422.314372) can0 192#52000000
(1557396422.314445) can0 010#F8070000
(1557396422.323309) can0 008#FFFFFFFF
(1557396422.323369) can0 00B#FFFFFFFF
(1557396422.333759) can0 012#FF070000
(1557396422.334138) can0 191#F8070000
(1557396422.334200) can0 190#D5070000
(1557396422.334340) can0 011#D5070000
(1557396422.334399) can0 192#52000000
(1557396422.334457) can0 00D#75010000
(1557396422.334572) can0 010#F5070000
(1557396422.343318) can0 008#FFFFFFFF
(1557396422.343383) can0 00B#FFFFFFFF
(1557396422.353749) can0 012#FF070000
(1557396422.354128) can0 191#F8070000
(1557396422.354189) can0 190#D5070000
(1557396422.354311) can0 011#D5070000
(1557396422.354370) can0 192#52000000
(1557396422.354449) can0 010#F8070000
(1557396422.363320) can0 008#FFFFFFFF
(1557396422.363380) can0 00B#FFFFFFFF
(1557396422.373760) can0 012#01080000
(1557396422.374139) can0 191#F8070000
(1557396422.374200) can0 190#D5070000
(1557396422.374341) can0 011#D5070000
(1557396422.374401) can0 064#FFEFCDAB
(1557396422.374487) can0 192#52000000
(1557396422.374547) can0 010#F8070000
(1557396422.383329) can0 008#FFFFFFFF
(1557396422.383388) can0 00B#FFFFFFFF
(1557396422.393749) can0 012#FF070000
(1557396422.394130) can0 191#F8070000
(1557396422.394190) can0 190#D7070000
(1557396422.394312) can0 011#D5070000
(1557396422.394371) can0 192#52000000
(1557396422.394488) can0 010#F8070000
(1557396422.403352) can0 008#FFFFFFFF
(1557396422.403412) can0 00B#FFFFFFFF
(1557396422.413750) can0 012#FE070000
(1557396422.414129) can0 191#F8070000
(1557396422.414190) can0 190#D5070000
(1557396422.414331) can0 011#D5070000
(1557396422.414391) can0 192#52000000
(1557396422.414450) can0 010#F8070000
(1557396422.423367) can0 008#FFFFFFFF
(1557396422.423427) can0 00B#FFFFFFFF
(1557396422.433750) can0 012#FF070000
(1557396422.434132) can0 191#F8070000
(1557396422.434191) can0 190#D7070000
(1557396422.434303) can0 011#D5070000
(1557396422.434363) can0 192#52000000
(1557396422.434494) can0 010#F5070000
(1557396422.443376) can0 008#FFFFFFFF
(1557396422.443435) can0 00B#FFFFFFFF
(1557396422.453752) can0 012#FE070000
(1557396422.454132) can0 191#F8070000
(1557396422.454194) can0 190#D7070000
(1557396422.454324) can0 011#D7070000
(1557396422.454383) can0 192#52000000
(1557396422.454500) can0 010#F5070000
(1557396422.463398) can0 008#FFFFFFFF
(1557396422.463458) can0 00B#FFFFFFFF
(1557396422.473753) can0 012#FF070000
(1557396422.474131) can0 191#F8070000
(1557396422.474191) can0 190#D5070000
(1557396422.474304) can0 011#D5070000
(1557396422.474363) can0 192#52000000
(1557396422.474495) can0 010#F8070000
(1557396422.483405) can0 008#FFFFFFFF
(1557396422.483466) can0 00B#FFFFFFFF
(1557396422.493755) can0 012#FD070000
(1557396422.494133) can0 191#F8070000
(1557396422.494195) can0 190#D5070000
(1557396422.494328) can0 011#D5070000
(1557396422.494389) can0 192#52000000
(1557396422.494448) can0 010#F5070000
(1557396422.503413) can0 008#FFFFFFFF
(1557396422.503474) can0 00B#FFFFFFFF
(1557396422.513755) can0 012#02080000
(1557396422.514136) can0 191#F8070000
(1557396422.514197) can0 190#D5070000
(1557396422.514310) can0 011#D5070000
(1557396422.514369) can0 192#52000000
(1557396422.514501) can0 010#F8070000
(1557396422.523425) can0 008#FFFFFFFF
(1557396422.523485) can0 00B#FFFFFFFF
(1557396422.533770) can0 012#FD070000
(1557396422.534149) can0 191#F8070000
(1557396422.534210) can0 190#D5070000
(1557396422.534345) can0 011#D5070000
(1557396422.534404) can0 192#53000000
(1557396422.534463) can0 00D#77010000
(1557396422.534590) can0 010#F5070000
(1557396422.539084) can0 020#01000000
(1557396422.543430) can0 008#FFFFFFFF
(1557396422.543490) can0 00B#FFFFFFFF
(1557396422.553759) can0 012#FD070000
(1557396422.554138) can0 191#F8070000
(1557396422.554199) can0 190#D5070000
(1557396422.554312) can0 011#D5070000
(1557396422.554372) can0 192#52000000
(1557396422.554517) can0 010#F8070000
(1557396422.563446) can0 008#FFFFFFFF
(1557396422.563506) can0 00B#FFFFFFFF
(1557396422.573770) can0 012#FF070000
(1557396422.574150) can0 191#F8070000
(1557396422.574211) can0 190#D5070000
(1557396422.574351) can0 011#D7070000
(1557396422.574411) can0 192#52000000
(1557396422.574471) can0 010#F8070000
(1557396422.583464) can0 008#FFFFFFFF
(1557396422.583524) can0 00B#FFFFFFFF
(1557396422.593760) can0 012#FD070000
(1557396422.603466) can0 008#FFFFFFFF
(1557396422.603526) can0 00B#FFFFFFFF
(1557396422.604790) can0 191#F8070000
(1557396422.604851) can0 190#D5070000
(1557396422.604991) can0 011#D5070000
(1557396422.605052) can0 192#52000000
(1557396422.605137) can0 010#F8070000
(1557396422.613772) can0 012#FF070000
(1557396422.614142) can0 191#F8070000
(1557396422.614202) can0 190#D5070000
(1557396422.614346) can0 011#D5070000
(1557396422.614406) can0 192#52000000
(1557396422.614465) can0 010#F8070000
(1557396422.623487) can0 008#FFFFFFFF
(1557396422.623547) can0 00B#FFFFFFFF
(1557396422.633785) can0 012#FF070000
(1557396422.634154) can0 191#F8070000
(1557396422.634218) can0 190#D5070000
(1557396422.634348) can0 011#D5070000
(1557396422.634408) can0 192#53000000
(1557396422.634481) can0 010#F5070000
(1557396422.643491) can0 008#FFFFFFFF
(1557396422.643550) can0 00B#FFFFFFFF
(1557396422.653775) can0 012#FB070000
(1557396422.654143) can0 191#F8070000
(1557396422.654204) can0 190#D5070000
(1557396422.654347) can0 011#D5070000
(1557396422.654406) can0 192#52000000
(1557396422.654465) can0 010#F8070000
(1557396422.660439) can0 048#00000000
(1557396422.660498) can0 025#14010000
(1557396422.663513) can0 008#FFFFFFFF
(1557396422.663574) can0 00B#FFFFFFFF
(1557396422.673776) can0 012#FD070000
(1557396422.674144) can0 191#F8070000
(1557396422.674206) can0 190#D5070000
(1557396422.674329) can0 011#D5070000
(1557396422.674389) can0 192#53000000
(1557396422.674463) can0 010#F8070000
(1557396422.682891) can0 048#00000000
(1557396422.682934) can0 025#FC000000
(1557396422.683515) can0 008#FFFFFFFF
(1557396422.683576) can0 00B#FFFFFFFF
(1557396422.693764) can0 012#00080000
(1557396422.694144) can0 191#F8070000
(1557396422.694204) can0 190#D5070000
(1557396422.694339) can0 011#D5070000
(1557396422.694399) can0 192#52000000
(1557396422.694457) can0 010#F8070000
(1557396422.703533) can0 008#FFFFFFFF
(1557396422.703594) can0 00B#FFFFFFFF
(1557396422.713765) can0 012#01080000
(1557396422.714146) can0 191#F8070000
(1557396422.714212) can0 190#D5070000
(1557396422.714326) can0 011#D5070000
(1557396422.714385) can0 192#53000000
(1557396422.714503) can0 010#F8070000
(1557396422.723541) can0 008#FFFFFFFF
(1557396422.723601) can0 00B#FFFFFFFF
(1557396422.733780) can0 012#FF070000
(1557396422.734159) can0 191#F8070000
(1557396422.734221) can0 190#D5070000
(1557396422.734352) can0 011#D5070000
(1557396422.734411) can0 192#52000000
(1557396422.734471) can0 00D#74010000
(1557396422.734586) can0 010#F8070000
(1557396422.743560) can0 008#FFFFFFFF
(1557396422.743619) can0 00B#FFFFFFFF
(1557396422.753768) can0 012#FC070000
(1557396422.754148) can0 191#F8070000
(1557396422.754215) can0 190#D5070000
(1557396422.754330) can0 011#D7070000
(1557396422.754389) can0 192#53000000
(1557396422.754513) can0 010#F5070000
(1557396422.763563) can0 008#FFFFFFFF
(1557396422.763622) can0 00B#FFFFFFFF
(1557396422.773782) can0 012#02080000
(1557396422.774161) can0 191#F8070000
(1557396422.774222) can0 190#D5070000
(1557396422.774355) can0 011#D5070000
(1557396422.774416) can0 064#FFEFCDAB
(1557396422.774475) can0 192#52000000
(1557396422.774592) can0 010#F8070000
(1557396422.783570) can0 008#FFFFFFFF
(1557396422.783630) can0 00B#FFFFFFFF
(1557396422.793770) can0 012#00080000
(1557396422.794149) can0 191#F8070000
(1557396422.794216) can0 190#D5070000
(1557396422.794329) can0 011#D5070000
(1557396422.794389) can0 192#52000000
(1557396422.794463) can0 010#F5070000
(1557396422.803576) can0 008#FFFFFFFF
(1557396422.803636) can0 00B#FFFFFFFF
(1557396422.813772) can0 012#FD070000
(1557396422.814151) can0 191#F8070000
(1557396422.814212) can0 190#D5070000
(1557396422.814345) can0 011#D7070000
(1557396422.814405) can0 192#52000000
(1557396422.814530) can0 010#F5070000
(1557396422.823597) can0 008#FFFFFFFF
(1557396422.823657) can0 00B#FFFFFFFF
(1557396422.833773) can0 012#FD070000
(1557396422.834151) can0 191#F8070000
(1557396422.834216) can0 190#D5070000
(1557396422.834328) can0 011#D5070000
(1557396422.834388) can0 192#52000000
(1557396422.834529) can0 010#F8070000
(1557396422.843610) can0 008#FFFFFFFF
(1557396422.843671) can0 00B#FFFFFFFF
(1557396422.853774) can0 012#FF070000
(1557396422.854153) can0 191#F8070000
(1557396422.854239) can0 190#D5070000
(1557396422.854299) can0 011#D5070000
(1557396422.854425) can0 192#52000000
(1557396422.854485) can0 010#F8070000
(1557396422.863618) can0 008#FFFFFFFF
(1557396422.863678) can0 00B#FFFFFFFF
(1557396422.873774) can0 012#01080000
(1557396422.874153) can0 191#F8070000
(1557396422.874217) can0 190#D5070000
(1557396422.874339) can0 011#D5070000
(1557396422.874399) can0 192#52000000
(1557396422.874472) can0 010#F5070000
(1557396422.883627) can0 008#FFFFFFFF
(1557396422.883686) can0 00B#FFFFFFFF
(1557396422.893775) can0 012#FB070000
(1557396422.894154) can0 191#F8070000
(1557396422.894216) can0 190#D5070000
(1557396422.894356) can0 011#D5070000
(1557396422.894417) can0 192#53000000
(1557396422.894501) can0 010#F8070000
(1557396422.903641) can0 008#FFFFFFFF
(1557396422.903702) can0 00B#FFFFFFFF
(1557396422.913777) can0 012#FD070000
(1557396422.914157) can0 191#F8070000
(1557396422.914219) can0 190#D5070000
(1557396422.914342) can0 011#D5070000
(1557396422.914401) can0 192#53000000
(1557396422.914484) can0 010#F8070000
(1557396422.923656) can0 008#FFFFFFFF
(1557396422.923717) can0 00B#FFFFFFFF
(1557396422.933791) can0 012#FC070000
(1557396422.934170) can0 191#F8070000
(1557396422.934230) can0 190#D5070000
(1557396422.934372) can0 011#D5070000
(1557396422.934432) can0 192#52000000
(1557396422.934490) can0 00D#76010000
(1557396422.934605) can0 010#F8070000
(1557396422.943678) can0 008#FFFFFFFF
(1557396422.943738) can0 00B#FFFFFFFF
(1557396422.953779) can0 012#FF070000
(1557396422.954160) can0 191#F8070000
(1557396422.954223) can0 190#D5070000
(1557396422.954347) can0 011#D5070000
(1557396422.954407) can0 192#53000000
(1557396422.954480) can0 010#F8070000
(1557396422.963698) can0 008#FFFFFFFF
(1557396422.963759) can0 00B#FFFFFFFF
(1557396422.973778) can0 012#FE070000
(1557396422.974158) can0 191#F8070000
(1557396422.974218) can0 190#D5070000
(1557396422.974347) can0 011#D5070000
(1557396422.974407) can0 192#52000000
(1557396422.974544) can0 010#F5070000
(1557396422.983726) can0 008#FFFFFFFF
(1557396422.983787) can0 00B#FFFFFFFF
(1557396422.993780) can0 012#FA070000
(1557396422.994160) can0 191#F8070000
(1557396422.994224) can0 190#D5070000
(1557396422.994339) can0 011#D5070000
(1557396422.994400) can0 192#52000000
(1557396422.994530) can0 010#F8070000
(1557396423.003728) can0 008#FFFFFFFF
(1557396423.003790) can0 00B#FFFFFFFF
(1557396423.013782) can0 012#F9070000
(1557396423.014161) can0 191#F8070000
(1557396423.014222) can0 190#D5070000
(1557396423.014355) can0 011#D5070000
(1557396423.014415) can0 192#52000000
(1557396423.014474) can0 010#F8070000
(1557396423.023734) can0 008#FFFFFFFF
(1557396423.023795) can0 00B#FFFFFFFF
(1557396423.033824) can0 012#FE070000
(1557396423.034169) can0 191#F8070000
(1557396423.034233) can0 190#D5070000
(1557396423.034376) can0 011#D5070000
(1557396423.034435) can0 192#53000000
(1557396423.034494) can0 010#F5070000
(1557396423.043745) can0 008#FFFFFFFF
(1557396423.043807) can0 00B#FFFFFFFF
(1557396423.053790) can0 012#FF070000
(1557396423.054169) can0 191#F8070000
(1557396423.054234) can0 190#D5070000
(1557396423.054330) can0 011#D7070000
(1557396423.054423) can0 192#53000000
(1557396423.054480) can0 010#F5070000
(1557396423.063773) can0 008#FFFFFFFF
(1557396423.063857) can0 00B#FFFFFFFF
(1557396423.073798) can0 012#FF070000
(1557396423.074181) can0 191#F8070000
(1557396423.074269) can0 190#D5070000
(1557396423.074326) can0 011#D5070000
(1557396423.074468) can0 192#53000000
(1557396423.074536) can0 010#F5070000
(1557396423.083119) can0 048#00000000
(1557396423.083202) can0 025#14010000
(1557396423.083759) can0 008#FFFFFFFF
(1557396423.083834) can0 00B#FFFFFFFF
(1557396423.093786) can0 012#FF070000
(1557396423.094168) can0 191#F8070000
(1557396423.094233) can0 190#D5070000
(1557396423.094338) can0 011#D5070000
(1557396423.094407) can0 192#52000000
(1557396423.094504) can0 010#F8070000
(1557396423.103597) can0 048#00000000
(1557396423.103680) can0 025#FC000000
(1557396423.103804) can0 008#FFFFFFFF
(1557396423.103872) can0 00B#FFFFFFFF
(1557396423.112922) can0 048#00000000
(1557396423.113014) can0 025#14010000
(1557396423.113786) can0 012#FF070000
(1557396423.114170) can0 191#F8070000
(1557396423.114250) can0 190#D5070000
(1557396423.114348) can0 011#D5070000
(1557396423.114406) can0 192#53000000
(1557396423.114509) can0 010#F8070000
(1557396423.118041) can0 048#00000000
(1557396423.118107) can0 025#14010000
(1557396423.123161) can0 048#00000000
(1557396423.123246) can0 025#14010000
(1557396423.123794) can0 008#FFFFFFFF
(1557396423.123878) can0 00B#FFFFFFFF
(1557396423.128280) can0 048#00000000
(1557396423.128363) can0 025#14010000
(1557396423.133800) can0 012#FF070000
(1557396423.133921) can0 048#00000000
(1557396423.133986) can0 025#14010000
(1557396423.134181) can0 191#F8070000
(1557396423.134247) can0 190#D7070000
(1557396423.134352) can0 011#D5070000
(1557396423.134419) can0 192#54000000
(1557396423.134515) can0 00D#74010000
(1557396423.134609) can0 010#F8070000
(1557396423.143817) can0 008#FFFFFFFF
(1557396423.143900) can0 00B#FFFFFFFF
(1557396423.153792) can0 012#FE070000
(1557396423.154171) can0 191#F8070000
(1557396423.154271) can0 190#D5070000
(1557396423.154328) can0 011#D5070000
(1557396423.154433) can0 192#53000000
(1557396423.154491) can0 010#F5070000
(1557396423.163832) can0 008#FFFFFFFF
(1557396423.163917) can0 00B#FFFFFFFF
(1557396423.173803) can0 012#FF070000
(1557396423.174183) can0 191#F8070000
(1557396423.174258) can0 190#D5070000
(1557396423.174354) can0 011#D5070000
(1557396423.174413) can0 064#FFEFCDAB
(1557396423.174525) can0 192#52000000
(1557396423.174599) can0 010#F5070000
(1557396423.183846) can0 008#FFFFFFFF
(1557396423.183929) can0 00B#FFFFFFFF
(1557396423.193793) can0 012#FD070000
(1557396423.194172) can0 191#F8070000
(1557396423.194272) can0 190#D5070000
(1557396423.194367) can0 011#D5070000
(1557396423.194446) can0 192#53000000
(1557396423.194518) can0 010#F5070000
(1557396423.203881) can0 008#FFFFFFFF
(1557396423.203964) can0 00B#FFFFFFFF
(1557396423.213794) can0 012#FE070000
(1557396423.214173) can0 191#F8070000
(1557396423.214255) can0 190#D5070000
(1557396423.214381) can0 011#D5070000
(1557396423.214452) can0 192#53000000
(1557396423.214523) can0 010#F8070000
(1557396423.223899) can0 008#FFFFFFFF
(1557396423.223983) can0 00B#FFFFFFFF
(1557396423.233829) can0 012#FC070000
(1557396423.234182) can0 191#F8070000
(1557396423.234265) can0 190#D5070000
(1557396423.234325) can0 011#D5070000
(1557396423.234434) can0 192#53000000
(1557396423.234502) can0 010#F5070000
(1557396423.243913) can0 008#FFFFFFFF
(1557396423.244001) can0 00B#FFFFFFFF
(1557396423.253796) can0 012#FF070000
(1557396423.254176) can0 191#F8070000
(1557396423.254242) can0 190#D5070000
(1557396423.254347) can0 011#D5070000
(1557396423.254416) can0 192#52000000
(1557396423.254526) can0 010#F8070000
(1557396423.263929) can0 008#FFFFFFFF
(1557396423.264012) can0 00B#FFFFFFFF
(1557396423.273797) can0 012#FE070000
(1557396423.274179) can0 191#F8070000
(1557396423.274267) can0 190#D7070000
(1557396423.274325) can0 011#D5070000
(1557396423.274442) can0 192#52000000
(1557396423.274503) can0 010#F5070000
(1557396423.283939) can0 008#FFFFFFFF
(1557396423.284025) can0 00B#FFFFFFFF
(1557396423.293797) can0 012#01080000
(1557396423.294177) can0 191#F8070000
(1557396423.294252) can0 190#D5070000
(1557396423.294370) can0 011#D5070000
(1557396423.294443) can0 192#52000000
(1557396423.294528) can0 010#F5070000
(1557396423.303949) can0 008#FFFFFFFF
(1557396423.304032) can0 00B#FFFFFFFF
(1557396423.313797) can0 012#00080000
(1557396423.314182) can0 191#F8070000
(1557396423.314258) can0 190#D5070000
(1557396423.314354) can0 011#D5070000
(1557396423.314413) can0 192#52000000
(1557396423.314523) can0 010#F8070000
(1557396423.323951) can0 008#FFFFFFFF
(1557396423.324036) can0 00B#FFFFFFFF
(1557396423.333813) can0 012#FD070000
(1557396423.334192) can0 191#F8070000
(1557396423.334266) can0 190#D5070000
(1557396423.334384) can0 011#D5070000
(1557396423.334456) can0 192#53000000
(1557396423.334549) can0 00D#76010000
(1557396423.334615) can0 010#F8070000
(1557396423.343977) can0 008#FFFFFFFF
(1557396423.344060) can0 00B#FFFFFFFF
(1557396423.353800) can0 012#FF070000
(1557396423.354193) can0 191#F8070000
(1557396423.354256) can0 190#D5070000
(1557396423.354349) can0 011#D5070000
(1557396423.354415) can0 192#52000000
(1557396423.354520) can0 010#F8070000
(1557396423.363979) can0 008#FFFFFFFF
(1557396423.364058) can0 00B#FFFFFFFF
(1557396423.373800) can0 012#FF070000
(1557396423.374180) can0 191#F8070000
(1557396423.374245) can0 190#D5070000
(1557396423.374351) can0 011#D5070000
(1557396423.374407) can0 192#53000000
(1557396423.374522) can0 010#F8070000
(1557396423.383998) can0 008#FFFFFFFF
(1557396423.384077) can0 00B#FFFFFFFF
(1557396423.393802) can0 012#01080000
(1557396423.394182) can0 191#F8070000
(1557396423.394268) can0 190#D5070000
(1557396423.394324) can0 011#D5070000
(1557396423.394482) can0 192#52000000
(1557396423.394548) can0 010#F8070000
(1557396423.404012) can0 008#FFFFFFFF
(1557396423.404089) can0 00B#FFFFFFFF
(1557396423.413804) can0 012#FE070000
(1557396423.414185) can0 191#F8070000
(1557396423.414257) can0 190#D5070000
(1557396423.414352) can0 011#D5070000
(1557396423.414412) can0 192#52000000
(1557396423.414523) can0 010#F8070000
(1557396423.424020) can0 008#FFFFFFFF
(1557396423.424102) can0 00B#FFFFFFFF
(1557396423.433804) can0 012#02080000
(1557396423.434185) can0 191#F8070000
(1557396423.434266) can0 190#D5070000
(1557396423.434331) can0 011#D5070000
(1557396423.434446) can0 192#52000000
(1557396423.434514) can0 010#F5070000
(1557396423.444026) can0 008#FFFFFFFF
(1557396423.444110) can0 00B#FFFFFFFF
(1557396423.453806) can0 012#01080000
(1557396423.454185) can0 191#F8070000
(1557396423.454253) can0 190#D5070000
(1557396423.454350) can0 011#D5070000
(1557396423.454451) can0 192#52000000
(1557396423.454508) can0 010#F8070000
(1557396423.464044) can0 008#FFFFFFFF
(1557396423.464122) can0 00B#FFFFFFFF
(1557396423.473806) can0 012#01080000
(1557396423.474187) can0 191#F8070000
(1557396423.474261) can0 190#D7070000
(1557396423.474357) can0 011#D5070000
(1557396423.474416) can0 192#52000000
(1557396423.474523) can0 010#F8070000
(1557396423.484045) can0 008#FFFFFFFF
(1557396423.484122) can0 00B#FFFFFFFF
(1557396423.493808) can0 012#FE070000
(1557396423.494188) can0 191#F8070000
(1557396423.494252) can0 190#D5070000
(1557396423.494358) can0 011#D5070000
(1557396423.494416) can0 192#52000000
(1557396423.494529) can0 010#F8070000
(1557396423.503422) can0 048#00000000
(1557396423.503882) can0 025#14010000
(1557396423.504049) can0 008#FFFFFFFF
(1557396423.504121) can0 00B#FFFFFFFF
(1557396423.513808) can0 012#00080000
(1557396423.514193) can0 191#F8070000
(1557396423.514257) can0 190#D5070000
(1557396423.514362) can0 011#D5070000
(1557396423.514420) can0 192#52000000
(1557396423.514527) can0 010#F8070000
(1557396423.523900) can0 048#00000000
(1557396423.523983) can0 025#FC000000
(1557396423.524112) can0 008#FFFFFFFF
(1557396423.524185) can0 00B#FFFFFFFF
(1557396423.530498) can0 048#00000000
(1557396423.530585) can0 025#14010000
(1557396423.533824) can0 012#FE070000
(1557396423.534202) can0 191#F8070000
(1557396423.534266) can0 190#D5070000
(1557396423.534372) can0 011#D5070000
(1557396423.534428) can0 192#53000000
(1557396423.534537) can0 00D#74010000
(1557396423.534637) can0 010#F8070000
(1557396423.535619) can0 048#00000000
(1557396423.535684) can0 025#14010000
(1557396423.539472) can0 020#01000000
(1557396423.540738) can0 048#00000000
(1557396423.540805) can0 025#14010000
(1557396423.544086) can0 008#FFFFFFFF
(1557396423.544167) can0 00B#FFFFFFFF
(1557396423.545860) can0 048#00000000
(1557396423.545943) can0 025#14010000
(1557396423.549444) can0 048#00000000
(1557396423.549526) can0 025#14010000
(1557396423.553811) can0 012#01080000
(1557396423.554194) can0 191#F8070000
(1557396423.554268) can0 190#D5070000
